!Murata Part Number: GRM219R61E475KA73
!These Parameters are Measured in Series Mode Connection
!       o--ll--o
!Port1            Port2
!       o------o
!Operation Temp=25[degC], DC Bias Voltage=0[V]
!Freq. Start=100[Hz] Stop=6[GHz], 401[Steps]
!Data Generated on Jan 8, 2019
# Hz S RI R 50
!Freq.(Hz) S11(Real) S11(Imag) S21(Real) S21(Imag) S12(Real) S12(Imag) S22(Real) S22(Imag)
100.0 0.9584169149206815 -0.19088525621581942 0.041583085079318564 0.19088525621581942 0.041583085079318564 0.19088525621581942 0.9584169149206815 -0.19088525621581942
104.57921513303334 0.9548793460164262 -0.198763253411062 0.045120653983573684 0.198763253411062 0.045120653983573684 0.198763253411062 0.9548793460164262 -0.198763253411062
109.3681223784127 0.9510499257204241 -0.20689648071794275 0.048950074279575914 0.20689648071794275 0.048950074279575914 0.20689648071794275 0.9510499257204241 -0.20689648071794275
114.3763239890794 0.9469075511892087 -0.21528365523012635 0.053092448810791296 0.21528365523012635 0.053092448810791296 0.21528365523012635 0.9469075511892087 -0.21528365523012635
119.61386192579457 0.9424301585204643 -0.22392205477458885 0.05756984147953562 0.22392205477458885 0.05756984147953562 0.22392205477458885 0.9424301585204643 -0.22392205477458885
125.09123799230618 0.9375947725961762 -0.23280734814322213 0.06240522740382386 0.23280734814322213 0.06240522740382386 0.23280734814322213 0.9375947725961762 -0.23280734814322213
130.8194348925486 0.9323775762547657 -0.24193341753847433 0.06762242374523426 0.24193341753847433 0.06762242374523426 0.24193341753847433 0.9323775762547657 -0.24193341753847433
136.8099382520969 0.9267540012175826 -0.25129217469690607 0.07324599878241743 0.25129217469690607 0.07324599878241743 0.25129217469690607 0.9267540012175826 -0.25129217469690607
143.0747596480305 0.9206988432379631 -0.2608733725707421 0.07930115676203683 0.2608733725707421 0.07930115676203683 0.2608733725707421 0.9206988432379631 -0.2608733725707421
149.6264606933842 0.9141864039392732 -0.2706644149084617 0.08581359606072671 0.2706644149084617 0.08581359606072671 0.2706644149084617 0.9141864039392732 -0.2706644149084617
156.47817822447783 0.9071906617526212 -0.2806501665820542 0.09280933824737878 0.2806501665820542 0.09280933824737878 0.2806501665820542 0.9071906617526212 -0.2806501665820542
163.643650641628 0.8996854742440562 -0.2908127680615282 0.10031452575594386 0.2908127680615282 0.10031452575594386 0.2908127680615282 0.8996854742440562 -0.2908127680615282
171.13724545605763 0.8916448139211692 -0.30113145803676866 0.10835518607883086 0.30113145803676866 0.10835518607883086 0.30113145803676866 0.8916448139211692 -0.30113145803676866
178.97398809823787 0.883043039312536 -0.31158240883171245 0.11695696068746388 0.31158240883171245 0.11695696068746388 0.31158240883171245 0.883043039312536 -0.31158240883171245
187.1695920454257 0.8738552026984057 -0.32213857994196854 0.12614479730159425 0.32213857994196854 0.12614479730159425 0.32213857994196854 0.8738552026984057 -0.32213857994196854
195.74049032880657 0.8640573953104305 -0.33276959574534265 0.1359426046895695 0.33276959574534265 0.1359426046895695 0.33276959574534265 0.8640573953104305 -0.33276959574534265
204.70386848341695 0.8536271300802843 -0.34344165416814443 0.1463728699197156 0.34344165416814443 0.1463728699197156 0.34344165416814443 0.8536271300802843 -0.34344165416814443
214.0776990069143 0.8425437610664839 -0.35411747381011227 0.1574562389335162 0.35411747381011227 0.1574562389335162 0.35411747381011227 0.8425437610664839 -0.35411747381011227
223.88077739628844 0.8307889374899025 -0.3647562876936064 0.16921106251009754 0.3647562876936064 0.16921106251009754 0.3647562876936064 0.8307889374899025 -0.3647562876936064
234.132759834772 0.8183470888301098 -0.37531389234627127 0.18165291116989019 0.37531389234627127 0.18165291116989019 0.37531389234627127 0.8183470888301098 -0.37531389234627127
244.85420260451448 0.8052059356569153 -0.3857427612682066 0.19479406434308458 0.3857427612682066 0.19479406434308458 0.3857427612682066 0.8052059356569153 -0.3857427612682066
256.06660330404856 0.7913570187948755 -0.3959922318723876 0.2086429812051245 0.3959922318723876 0.2086429812051245 0.3959922318723876 0.7913570187948755 -0.3959922318723876
267.792443953192 0.7767962370738276 -0.40600877460207585 0.22320376292617244 0.40600877460207585 0.22320376292617244 0.40600877460207585 0.7767962370738276 -0.40600877460207585
280.0552360718164 0.7615243813767322 -0.41573635199475556 0.23847561862326788 0.41573635199475556 0.23847561862326788 0.41573635199475556 0.7615243813767322 -0.41573635199475556
292.87956782286926 0.745547650076399 -0.42511687385705677 0.25445234992360105 0.42511687385705677 0.25445234992360105 0.42511687385705677 0.745547650076399 -0.42511687385705677
306.2911533141767 0.7288781284262982 -0.4340907523398262 0.2711218715737018 0.4340907523398262 0.2711218715737018 0.4340907523398262 0.7288781284262982 -0.4340907523398262
320.3168841578819 0.7115342122587356 -0.44259755750034363 0.2884657877412644 0.44259755750034363 0.2884657877412644 0.44259755750034363 0.7115342122587356 -0.44259755750034363
334.9848833909005 0.6935409547069212 -0.4505767699173903 0.3064590452930788 0.4505767699173903 0.3064590452930788 0.4505767699173903 0.6935409547069212 -0.4505767699173903
350.32456186451077 0.6749303138869596 -0.45796862217575285 0.3250696861130404 0.45796862217575285 0.3250696861130404 0.45796862217575285 0.6749303138869596 -0.45796862217575285
366.36667721614316 0.6557412798250656 -0.46471501574810464 0.34425872017493436 0.46471501574810464 0.34425872017493436 0.46471501574810464 0.6557412798250656 -0.46471501574810464
383.1433955416162 0.6360198606257198 -0.47076049426281097 0.36398013937428014 0.47076049426281097 0.36398013937428014 0.47076049426281097 0.6360198606257198 -0.47076049426281097
400.68835589147574 0.6158189110994808 -0.47605324873591665 0.38418108890051905 0.47605324873591665 0.38418108890051905 0.47605324873591665 0.6158189110994808 -0.47605324873591665
419.03673772076064 0.5951977918407166 -0.48054612551117915 0.40480220815928336 0.48054612551117915 0.40480220815928336 0.48054612551117915 0.5951977918407166 -0.48054612551117915
438.225331427439 0.5742218529583524 -0.4841976038688449 0.42577814704164774 0.4841976038688449 0.42577814704164774 0.4841976038688449 0.5742218529583524 -0.4841976038688449
458.2926121209498 0.5529617440527458 -0.48697270798609216 0.4470382559472542 0.48697270798609216 0.4470382559472542 0.48697270798609216 0.5529617440527458 -0.48697270798609216
479.2788167687661 0.5314925601829408 -0.4888438175371062 0.4685074398170591 0.4888438175371062 0.4685074398170591 0.4888438175371062 0.5314925601829408 -0.4888438175371062
501.22602487566456 0.5098928419387945 -0.48979134295550136 0.49010715806120564 0.48979134295550136 0.49010715806120564 0.48979134295550136 0.5098928419387945 -0.48979134295550136
524.1782428574726 0.48824345569980426 -0.4898042353187659 0.5117565443001956 0.4898042353187659 0.5117565443001956 0.4898042353187659 0.48824345569980426 -0.4898042353187659
548.1814922784702 0.46662638708674703 -0.4888803068260399 0.5333736129132531 0.4888803068260399 0.5333736129132531 0.4888803068260399 0.46662638708674703 -0.4888803068260399
573.2839021293739 0.44512348590492395 -0.4870263455970818 0.5548765140950759 0.4870263455970818 0.5548765140950759 0.4870263455970818 0.44512348590492395 -0.4870263455970818
599.5358053309263 0.42381520407024054 -0.4842580175138572 0.5761847959297594 0.4842580175138572 0.5761847959297594 0.4842580175138572 0.42381520407024054 -0.4842580175138572
626.9898396565933 0.402779368808847 -0.4805995574187547 0.5972206311911531 0.4805995574187547 0.5972206311911531 0.4805995574187547 0.402779368808847 -0.4805995574187547
655.7010532767296 0.3820900317468403 -0.4760832614730351 0.6179099682531596 0.4760832614730351 0.6179099682531596 0.4760832614730351 0.3820900317468403 -0.4760832614730351
685.7270151358366 0.36181643049879647 -0.47074880117461093 0.6381835695012035 0.47074880117461093 0.6381835695012035 0.47074880117461093 0.36181643049879647 -0.47074880117461093
717.1279303842347 0.34202209336597295 -0.46464238682828674 0.6579779066340271 0.46464238682828674 0.6579779066340271 0.46464238682828674 0.34202209336597295 -0.46464238682828674
749.9667610955984 0.3227641102706264 -0.4578158136910858 0.6772358897293737 0.4578158136910858 0.6772358897293737 0.4578158136910858 0.3227641102706264 -0.4578158136910858
784.3093525124082 0.3040925846861788 -0.4503254273015944 0.6959074153138212 0.4503254273015944 0.6959074153138212 0.4503254273015944 0.3040925846861788 -0.4503254273015944
820.2245650724522 0.2860502727107597 -0.44223104556682225 0.7139497272892402 0.44223104556682225 0.7139497272892402 0.44223104556682225 0.2860502727107597 -0.44223104556682225
857.7844124811068 0.2686724071770661 -0.4335948741351494 0.7313275928229339 0.4335948741351494 0.7313275928229339 0.4335948741351494 0.2686724071770661 -0.4335948741351494
897.0642061062428 0.25198669730861 -0.4244804487024115 0.74801330269139 0.4244804487024115 0.74801330269139 0.4244804487024115 0.25198669730861 -0.4244804487024115
938.1427059852851 0.236013488307336 -0.4149516335687055 0.763986511692664 0.4149516335687055 0.763986511692664 0.4149516335687055 0.236013488307336 -0.4149516335687055
981.102278747212 0.2207660606287392 -0.4050717004388113 0.7792339393712607 0.4050717004388113 0.7792339393712607 0.4050717004388113 0.2207660606287392 -0.4050717004388113
1026.0290627661395 0.2062510456583408 -0.39490250560500056 0.793748954341659 0.39490250560500056 0.793748954341659 0.39490250560500056 0.2062510456583408 -0.39490250560500056
1073.0131408776467 0.1924689330051326 -0.3845037777022898 0.8075310669948673 0.3845037777022898 0.8075310669948673 0.3845037777022898 0.1924689330051326 -0.3845037777022898
1122.1487210041523 0.17941464452429406 -0.3739325225536093 0.820585355475706 0.3739325225536093 0.820585355475706 0.3739325225536093 0.17941464452429406 -0.3739325225536093
1173.5343250515148 0.16707815124985176 -0.3632425465123064 0.8329218487501483 0.3632425465123064 0.8329218487501483 0.3632425465123064 0.16707815124985176 -0.3632425465123064
1227.2729864556143 0.15544511139355702 -0.35248409535601277 0.8445548886064431 0.35248409535601277 0.8445548886064431 0.35248409535601277 0.15544511139355702 -0.35248409535601277
1283.4724567750195 0.1444975101737276 -0.34170360229384833 0.8555024898262725 0.34170360229384833 0.8555024898262725 0.34170360229384833 0.1444975101737276 -0.34170360229384833
1342.245421743976 0.13421428521525544 -0.33094353604402443 0.8657857147847445 0.33094353604402443 0.8657857147847445 0.33094353604402443 0.13421428521525544 -0.33094353604402443
1403.7097272189235 0.12457192437857409 -0.3202423381834936 0.8754280756214259 0.3202423381834936 0.8754280756214259 0.3202423381834936 0.12457192437857409 -0.3202423381834936
1467.9886154715937 0.11554502594196409 -0.30963443798176293 0.884454974058036 0.30963443798176293 0.884454974058036 0.30963443798176293 0.11554502594196409 -0.30963443798176293
1535.2109723024755 0.10710681393490687 -0.29915033259492063 0.892893186065093 0.29915033259492063 0.892893186065093 0.29915033259492063 0.10710681393490687 -0.29915033259492063
1605.5115854701387 0.09922960400228877 -0.2888167206873296 0.9007703959977114 0.2888167206873296 0.9007703959977114 0.2888167206873296 0.09922960400228877 -0.2888167206873296
1679.0314149545911 0.09188521741304843 -0.27865667814031114 0.9081147825869517 0.27865667814031114 0.9081147825869517 0.27865667814031114 0.09188521741304843 -0.27865667814031114
1755.9178755965756 0.08504534268967195 -0.26868986538054557 0.914954657310328 0.26868986538054557 0.914954657310328 0.26868986538054557 0.08504534268967195 -0.26868986538054557
1836.3251326795319 0.07868184583100686 -0.2589327569112115 0.9213181541689932 0.2589327569112115 0.9213181541689932 0.2589327569112115 0.07868184583100686 -0.2589327569112115
1920.4144110468878 0.07276703125376 -0.24939888476900202 0.9272329687462401 0.24939888476900202 0.9272329687462401 0.24939888476900202 0.07276703125376 -0.24939888476900202
2008.3543183745 0.06727385642363823 -0.24009908879153266 0.9327261435763616 0.24009908879153266 0.9327261435763616 0.24009908879153266 0.06727385642363823 -0.24009908879153266
2100.321183246434 0.06217610372770379 -0.23104176771171184 0.9378238962722961 0.23104176771171184 0.9378238962722961 0.23104176771171184 0.06217610372770379 -0.23104176771171184
2196.4994087119585 0.05744851349903095 -0.2222331261637132 0.9425514865009691 0.2222331261637132 0.9425514865009691 0.2222331261637132 0.05744851349903095 -0.2222331261637132
2297.0818420326846 0.05306688228522985 -0.21367741366808626 0.9469331177147703 0.21367741366808626 0.9469331177147703 0.21367741366808626 0.05306688228522985 -0.21367741366808626
2402.270161361206 0.04900813049170858 -0.20537715255056033 0.9509918695082914 0.20537715255056033 0.9509918695082914 0.20537715255056033 0.04900813049170858 -0.20537715255056033
2512.2752801266033 0.045250343461149575 -0.19733335253720755 0.9547496565388505 0.19733335253720755 0.9547496565388505 0.19733335253720755 0.045250343461149575 -0.19733335253720755
2627.3177699376165 0.04177278989929827 -0.18954571045984106 0.9582272101007019 0.18954571045984106 0.9582272101007019 0.18954571045984106 0.04177278989929827 -0.18954571045984106
2747.6283028514745 0.038555921345068765 -0.18201279410468277 0.9614440786549312 0.18201279410468277 0.9614440786549312 0.18201279410468277 0.038555921345068765 -0.18201279410468277
2873.4481138951564 0.03558135612677767 -0.1747322097505192 0.9644186438732225 0.1747322097505192 0.9644186438732225 0.1747322097505192 0.03558135612677767 -0.1747322097505192
3005.0294847665045 0.03283185095896414 -0.1677007533759083 0.967168149041036 0.1677007533759083 0.967168149041036 0.1677007533759083 0.03283185095896414 -0.1677007533759083
3142.6362496850466 0.030291263026090615 -0.16091454587418333 0.9697087369739092 0.16091454587418333 0.9697087369739092 0.16091454587418333 0.030291263026090615 -0.16091454587418333
3286.544324406816 0.02794450507911123 -0.15436915290501443 0.9720554949208888 0.15436915290501443 0.9720554949208888 0.15436915290501443 0.02794450507911123 -0.15436915290501443
3437.0422594639017 0.02577749574616761 -0.14805969023668636 0.9742225042538323 0.14805969023668636 0.9742225042538323 0.14805969023668636 0.02577749574616761 -0.14805969023668636
3594.431818738024 0.023777106936715545 -0.14198091559840348 0.9762228930632845 0.14198091559840348 0.9762228930632845 0.14198091559840348 0.023777106936715545 -0.14198091559840348
3759.0285845282415 0.021931109906025592 -0.1361273081714711 0.9780688900939744 0.1361273081714711 0.9780688900939744 0.1361273081714711 0.021931109906025592 -0.1361273081714711
3931.162590326006 0.020228121250614 -0.1304931369073098 0.9797718787493859 0.1304931369073098 0.9797718787493859 0.1304931369073098 0.020228121250614 -0.1304931369073098
4111.17898256636 0.018657549830433686 -0.12507251887482182 0.9813424501695661 0.12507251887482182 0.9813424501695661 0.12507251887482182 0.018657549830433686 -0.12507251887482182
4299.438712682125 0.01720954536530249 -0.11985946881627874 0.9827904546346975 0.11985946881627874 0.9827904546346975 0.11985946881627874 0.01720954536530249 -0.11985946881627874
4496.31926084876 0.015874949234519604 -0.1148479410367917 0.9841250507654802 0.1148479410367917 0.9841250507654802 0.1148479410367917 0.015874949234519604 -0.1148479410367917
4702.215392871039 0.014645247821941288 -0.11003186467498818 0.9853547521780587 0.11003186467498818 0.9853547521780587 0.11003186467498818 0.014645247821941288 -0.11003186467498818
4917.539951729213 0.013512528594473893 -0.10540517330906016 0.9864874714055261 0.10540517330906016 0.9864874714055261 0.10540517330906016 0.013512528594473893 -0.10540517330906016
5142.724685371758 0.012469438979106613 -0.1009618297497252 0.9875305610208935 0.1009618297497252 0.9875305610208935 0.1009618297497252 0.012469438979106613 -0.1009618297497252
5378.221112414543 0.011509148010134663 -0.09669584676589847 0.9884908519898653 0.09669584676589847 0.9884908519898653 0.09669584676589847 0.011509148010134663 -0.09669584676589847
5624.501427482224 0.010625310651071697 -0.09260130438506946 0.9893746893489282 0.09260130438506946 0.9893746893489282 0.09260130438506946 0.010625310651071697 -0.09260130438506946
5882.059448007167 0.009812034651257481 -0.08867236431242419 0.9901879653487425 0.08867236431242419 0.9901879653487425 0.08867236431242419 0.009812034651257481 -0.08867236431242419
6151.41160438433 0.009063849771380474 -0.08490328192340256 0.9909361502286194 0.08490328192340256 0.9909361502286194 0.08490328192340256 0.009063849771380474 -0.08490328192340256
6433.097975467465 0.00837567920110497 -0.08128841620532204 0.991624320798895 0.08128841620532204 0.991624320798895 0.08128841620532204 0.00837567920110497 -0.08128841620532204
6727.683371482931 0.007742812991997037 -0.07782223795565812 0.992257187008003 0.07782223795565812 0.992257187008003 0.07782223795565812 0.007742812991997037 -0.07782223795565812
7035.758466532445 0.007160883336663343 -0.07449933648753025 0.9928391166633367 0.07449933648753025 0.9928391166633367 0.07449933648753025 0.007160883336663343 -0.07449933648753025
7357.940982955574 0.0066258415376272495 -0.07131442504628775 0.9933741584623729 0.07131442504628775 0.9933741584623729 0.07131442504628775 0.0066258415376272495 -0.07131442504628775
7694.876929926739 0.006133936524681111 -0.06826234510384273 0.993866063475319 0.06826234510384273 0.993866063475319 0.06826234510384273 0.006133936524681111 -0.06826234510384273
8047.241898770236 0.005681694795511393 -0.0653380696683444 0.9943183052044886 0.0653380696683444 0.9943183052044886 0.0653380696683444 0.005681694795511393 -0.0653380696683444
8415.742417590522 0.005265901670014212 -0.06253670572462834 0.9947340983299857 0.06253670572462834 0.9947340983299857 0.06253670572462834 0.005265901670014212 -0.06253670572462834
8801.117367933934 0.00488358376304058 -0.05985349590432974 0.9951164162369595 0.05985349590432974 0.9951164162369595 0.05985349590432974 0.00488358376304058 -0.05985349590432974
9204.139466322391 0.004531992592811045 -0.05728381947241494 0.9954680074071889 0.05728381947241494 0.9954680074071889 0.05728381947241494 0.004531992592811045 -0.05728381947241494
9625.61681362972 0.004208589252663497 -0.054823192708088955 0.9957914107473363 0.054823192708088955 0.9957914107473363 0.054823192708088955 0.004208589252663497 -0.054823192708088955
10066.394515407255 0.003911030082090023 -0.05246726875165089 0.9960889699179098 0.05246726875165089 0.9960889699179098 0.05246726875165089 0.003911030082090023 -0.05246726875165089
10527.356376407623 0.0036371532792632 -0.0502118369841097 0.9963628467207367 0.0502118369841097 0.9963628467207367 0.0502118369841097 0.0036371532792632 -0.0502118369841097
11009.426672704432 0.003384966401629163 -0.048052822002599305 0.9966150335983708 0.048052822002599305 0.9966150335983708 0.048052822002599305 0.003384966401629163 -0.048052822002599305
11513.572004961125 0.003152634703895332 -0.04598628225132655 0.9968473652961047 0.04598628225132655 0.9968473652961047 0.04598628225132655 0.003152634703895332 -0.04598628225132655
12040.803236564994 0.0029384702641439358 -0.044008408364540515 0.997061529735856 0.044008408364540515 0.997061529735856 0.044008408364540515 0.0029384702641439358 -0.044008408364540515
12592.177520512549 0.0027409218491608093 -0.04211552127451461 0.9972590781508394 0.04211552127451461 0.9972590781508394 0.04211552127451461 0.0027409218491608093 -0.04211552127451461
13168.800419110281 0.002558565469699201 -0.04030407013355485 0.9974414345303009 0.04030407013355485 0.9974414345303009 0.04030407013355485 0.002558565469699201 -0.04030407013355485
13771.82812074114 0.002390095575626421 -0.03857063009443938 0.9976099044243735 0.03857063009443938 0.9976099044243735 0.03857063009443938 0.002390095575626421 -0.03857063009443938
