!Murata Part Number: GRM188R61C475KE11
!These Parameters are Measured in Series Mode Connection
!       o--ll--o
!Port1            Port2
!       o------o
!Operation Temp=25[degC], DC Bias Voltage=0[V]
!Freq. Start=100[Hz] Stop=6[GHz], 401[Steps]
!Data Generated on Oct 1, 2019
# Hz S RI R 50
!Freq.(Hz) S11(Real) S11(Imag) S21(Real) S21(Imag) S12(Real) S12(Imag) S22(Real) S22(Imag)
100.0 0.9486477801766998 -0.2134463594854253 0.05135221982330011 0.2134463594854253 0.05135221982330011 0.2134463594854253 0.9486477801766998 -0.2134463594854253
104.57921513303334 0.9443028183834539 -0.22207844814499003 0.05569718161654617 0.22207844814499003 0.05569718161654617 0.22207844814499003 0.9443028183834539 -0.22207844814499003
109.3681223784127 0.9396052146752034 -0.23096717223621188 0.06039478532479671 0.23096717223621188 0.06039478532479671 0.23096717223621188 0.9396052146752034 -0.23096717223621188
114.3763239890794 0.9345304292092448 -0.24010739471648754 0.06546957079075506 0.24010739471648754 0.06546957079075506 0.24010739471648754 0.9345304292092448 -0.24010739471648754
119.61386192579457 0.9290530216432696 -0.24949197294117692 0.0709469783567304 0.24949197294117692 0.0709469783567304 0.24949197294117692 0.9290530216432696 -0.24949197294117692
125.09123799230618 0.9231467620115147 -0.259111547600773 0.07685323798848545 0.259111547600773 0.07685323798848545 0.259111547600773 0.9231467620115147 -0.259111547600773
130.8194348925486 0.9167847717409946 -0.2689543271329761 0.08321522825900551 0.2689543271329761 0.08321522825900551 0.2689543271329761 0.9167847717409946 -0.2689543271329761
136.8099382520969 0.9099396979933085 -0.2790058709500561 0.09006030200669148 0.2790058709500561 0.09006030200669148 0.2790058709500561 0.9099396979933085 -0.2790058709500561
143.0747596480305 0.9025839243463429 -0.28924887559762685 0.09741607565365695 0.28924887559762685 0.09741607565365695 0.28924887559762685 0.9025839243463429 -0.28924887559762685
149.6264606933842 0.8946898205174377 -0.2996629687888451 0.10531017948256215 0.2996629687888451 0.10531017948256215 0.2996629687888451 0.8946898205174377 -0.2996629687888451
156.47817822447783 0.8862300333506875 -0.3102245171193008 0.11376996664931247 0.3102245171193008 0.11376996664931247 0.3102245171193008 0.8862300333506875 -0.3102245171193008
163.643650641628 0.8771778206218412 -0.32090645413709407 0.12282217937815879 0.32090645413709407 0.12282217937815879 0.32090645413709407 0.8771778206218412 -0.32090645413709407
171.13724545605763 0.86750742833235 -0.3316781362867578 0.13249257166765002 0.3316781362867578 0.13249257166765002 0.3316781362867578 0.86750742833235 -0.3316781362867578
178.97398809823787 0.8571945110504364 -0.3425052350235655 0.14280548894956344 0.3425052350235655 0.14280548894956344 0.3425052350235655 0.8571945110504364 -0.3425052350235655
187.1695920454257 0.8462165934980556 -0.35334967405621687 0.15378340650194453 0.35334967405621687 0.15378340650194453 0.35334967405621687 0.8462165934980556 -0.35334967405621687
195.74049032880657 0.8345535699727562 -0.3641696211616404 0.1654464300272438 0.3641696211616404 0.1654464300272438 0.3641696211616404 0.8345535699727562 -0.3641696211616404
204.70386848341695 0.8221882363384623 -0.3749195442575035 0.17781176366153773 0.3749195442575035 0.17781176366153773 0.3749195442575035 0.8221882363384623 -0.3749195442575035
214.0776990069143 0.8091068472398917 -0.385550341339767 0.19089315276010824 0.385550341339767 0.19089315276010824 0.385550341339767 0.8091068472398917 -0.385550341339767
223.88077739628844 0.7952996889320099 -0.39600955341243865 0.20470031106799025 0.39600955341243865 0.20470031106799025 0.39600955341243865 0.7952996889320099 -0.39600955341243865
234.132759834772 0.7807616557329515 -0.40624166857079497 0.21923834426704844 0.40624166857079497 0.21923834426704844 0.40624166857079497 0.7807616557329515 -0.40624166857079497
244.85420260451448 0.7654928156991843 -0.4161885238683096 0.2345071843008159 0.4161885238683096 0.2345071843008159 0.4161885238683096 0.7654928156991843 -0.4161885238683096
256.06660330404856 0.7494989488100108 -0.42578980943465544 0.2505010511899893 0.42578980943465544 0.2505010511899893 0.42578980943465544 0.7494989488100108 -0.42578980943465544
267.792443953192 0.7327920388924007 -0.4349836764747316 0.2672079611075993 0.4349836764747316 0.2672079611075993 0.4349836764747316 0.7327920388924007 -0.4349836764747316
280.0552360718164 0.7153906989042413 -0.44370744726117856 0.28460930109575866 0.44370744726117856 0.28460930109575866 0.44370744726117856 0.7153906989042413 -0.44370744726117856
292.87956782286926 0.6973205082345977 -0.45189842108120415 0.3026794917654023 0.45189842108120415 0.3026794917654023 0.45189842108120415 0.6973205082345977 -0.45189842108120415
306.2911533141767 0.6786142405921475 -0.45949476542335593 0.32138575940785263 0.45949476542335593 0.32138575940785263 0.45949476542335593 0.6786142405921475 -0.45949476542335593
320.3168841578819 0.6593119620446043 -0.46643647667613825 0.3406880379553957 0.46643647667613825 0.3406880379553957 0.46643647667613825 0.6593119620446043 -0.46643647667613825
334.9848833909005 0.6394609810119405 -0.4726663895205727 0.36053901898805957 0.4726663895205727 0.36053901898805957 0.4726663895205727 0.6394609810119405 -0.4726663895205727
350.32456186451077 0.6191156356066322 -0.47813120936654135 0.3808843643933679 0.47813120936654135 0.3808843643933679 0.47813120936654135 0.6191156356066322 -0.47813120936654135
366.36667721614316 0.5983369086608238 -0.48278253799460563 0.4016630913391761 0.48278253799460563 0.4016630913391761 0.48278253799460563 0.5983369086608238 -0.48278253799460563
383.1433955416162 0.57719186696879 -0.48657785943032866 0.4228081330312099 0.48657785943032866 0.4228081330312099 0.48657785943032866 0.57719186696879 -0.48657785943032866
400.68835589147574 0.5557529284550373 -0.4894814513881627 0.44424707154496257 0.4894814513881627 0.44424707154496257 0.4894814513881627 0.5557529284550373 -0.4894814513881627
419.03673772076064 0.534096968773554 -0.4914651877023119 0.46590303122644594 0.4914651877023119 0.46590303122644594 0.4914651877023119 0.534096968773554 -0.4914651877023119
438.225331427439 0.5123042867594464 -0.4925091992248185 0.48769571324055366 0.4925091992248185 0.48769571324055366 0.4925091992248185 0.5123042867594464 -0.4925091992248185
458.2926121209498 0.4904574556243641 -0.4926023647744764 0.509542544375636 0.4926023647744764 0.509542544375636 0.4926023647744764 0.4904574556243641 -0.4926023647744764
479.2788167687661 0.4686400932255783 -0.4917426097420533 0.5313599067744215 0.4917426097420533 0.5313599067744215 0.4917426097420533 0.4686400932255783 -0.4917426097420533
501.22602487566456 0.44693558960261637 -0.4899369975905602 0.5530644103973835 0.4899369975905602 0.5530644103973835 0.4899369975905602 0.44693558960261637 -0.4899369975905602
524.1782428574726 0.4254258328285906 -0.48720160826052095 0.5745741671714094 0.48720160826052095 0.5745741671714094 0.48720160826052095 0.4254258328285906 -0.48720160826052095
548.1814922784702 0.4041899747901576 -0.48356120680153347 0.5958100252098423 0.48356120680153347 0.5958100252098423 0.48356120680153347 0.4041899747901576 -0.48356120680153347
573.2839021293739 0.3833032767111452 -0.4790487147405963 0.6166967232888549 0.4790487147405963 0.6166967232888549 0.4790487147405963 0.3833032767111452 -0.4790487147405963
599.5358053309263 0.36283607019950503 -0.4737045051078398 0.637163929800495 0.4737045051078398 0.637163929800495 0.4737045051078398 0.36283607019950503 -0.4737045051078398
626.9898396565933 0.3428528636486066 -0.46757554908941046 0.6571471363513934 0.46757554908941046 0.6571471363513934 0.46757554908941046 0.3428528636486066 -0.46757554908941046
655.7010532767296 0.3234116164411538 -0.46071444751711377 0.6765883835588461 0.46071444751711377 0.6765883835588461 0.46071444751711377 0.3234116164411538 -0.46071444751711377
685.7270151358366 0.30456319516659014 -0.45317838356127965 0.69543680483341 0.45317838356127965 0.69543680483341 0.45317838356127965 0.30456319516659014 -0.45317838356127965
717.1279303842347 0.28635101758554776 -0.4450280339849438 0.7136489824144523 0.4450280339849438 0.7136489824144523 0.4450280339849438 0.28635101758554776 -0.4450280339849438
749.9667610955984 0.2688108819442932 -0.436326475246682 0.731189118055707 0.436326475246682 0.731189118055707 0.436326475246682 0.2688108819442932 -0.436326475246682
784.3093525124082 0.25197097196154983 -0.42713811786648775 0.7480290280384502 0.42713811786648775 0.7480290280384502 0.42713811786648775 0.25197097196154983 -0.42713811786648775
820.2245650724522 0.23585202176089232 -0.4175276981693543 0.7641479782391076 0.4175276981693543 0.7641479782391076 0.4175276981693543 0.23585202176089232 -0.4175276981693543
857.7844124811068 0.22046762044268067 -0.4075593512354503 0.7795323795573194 0.4075593512354503 0.7795323795573194 0.4075593512354503 0.22046762044268067 -0.4075593512354503
897.0642061062428 0.20582463297418313 -0.3972957830703581 0.7941753670258169 0.3972957830703581 0.7941753670258169 0.3972957830703581 0.20582463297418313 -0.3972957830703581
938.1427059852851 0.1919237125881948 -0.38679755409227046 0.8080762874118051 0.38679755409227046 0.8080762874118051 0.38679755409227046 0.1919237125881948 -0.38679755409227046
981.102278747212 0.17875987977627095 -0.3761224803827639 0.8212401202237292 0.3761224803827639 0.8212401202237292 0.3761224803827639 0.17875987977627095 -0.3761224803827639
1026.0290627661395 0.16632314402525647 -0.365325154049486 0.8336768559747436 0.365325154049486 0.8336768559747436 0.365325154049486 0.16632314402525647 -0.365325154049486
1073.0131408776467 0.15459914641546602 -0.3544565796981424 0.845400853584534 0.3544565796981424 0.845400853584534 0.3544565796981424 0.15459914641546602 -0.3544565796981424
1122.1487210041523 0.14356980380368192 -0.3435639205146686 0.8564301961963182 0.3435639205146686 0.8564301961963182 0.3435639205146686 0.14356980380368192 -0.3435639205146686
1173.5343250515148 0.13321393829411976 -0.3326903448451806 0.8667860617058804 0.3326903448451806 0.8667860617058804 0.3326903448451806 0.13321393829411976 -0.3326903448451806
1227.2729864556143 0.12350787882545869 -0.32187496239658236 0.8764921211745413 0.32187496239658236 0.8764921211745413 0.32187496239658236 0.12350787882545869 -0.32187496239658236
1283.4724567750195 0.11442602478233826 -0.31115283818362927 0.8855739752176618 0.31115283818362927 0.8855739752176618 0.31115283818362927 0.11442602478233826 -0.31115283818362927
1342.245421743976 0.1059413644309033 -0.3005550720084404 0.8940586355690967 0.3005550720084404 0.8940586355690967 0.3005550720084404 0.1059413644309033 -0.3005550720084404
1403.7097272189235 0.09802594358034276 -0.2901089314514131 0.9019740564196572 0.2901089314514131 0.9019740564196572 0.2901089314514131 0.09802594358034276 -0.2901089314514131
1467.9886154715937 0.09065128212682814 -0.2798380269518552 0.909348717873172 0.2798380269518552 0.909348717873172 0.2798380269518552 0.09065128212682814 -0.2798380269518552
1535.2109723024755 0.08378873801814125 -0.26976251844360044 0.9162112619818586 0.26976251844360044 0.9162112619818586 0.26976251844360044 0.08378873801814125 -0.26976251844360044
1605.5115854701387 0.07740981968889134 -0.25989934408015686 0.9225901803111087 0.25989934408015686 0.9225901803111087 0.25989934408015686 0.07740981968889134 -0.25989934408015686
1679.0314149545911 0.07148644917947046 -0.25026246274737274 0.9285135508205296 0.25026246274737274 0.9285135508205296 0.25026246274737274 0.07148644917947046 -0.25026246274737274
1755.9178755965756 0.06599117900140908 -0.24086310324908877 0.9340088209985908 0.24086310324908877 0.9340088209985908 0.24086310324908877 0.06599117900140908 -0.24086310324908877
1836.3251326795319 0.060897366389085446 -0.2317100142102697 0.9391026336109144 0.2317100142102697 0.9391026336109144 0.2317100142102697 0.060897366389085446 -0.2317100142102697
1920.4144110468878 0.05617930892650134 -0.222809709835922 0.9438206910734986 0.222809709835922 0.9438206910734986 0.222809709835922 0.05617930892650134 -0.222809709835922
2008.3543183745 0.05181234570053215 -0.2141667076693665 0.9481876542994678 0.2141667076693665 0.9481876542994678 0.2141667076693665 0.05181234570053215 -0.2141667076693665
2100.321183246434 0.04777292814761003 -0.2057837553974473 0.95222707185239 0.2057837553974473 0.95222707185239 0.2057837553974473 0.04777292814761003 -0.2057837553974473
2196.4994087119585 0.04403866466333168 -0.19766204454833855 0.9559613353366684 0.19766204454833855 0.9559613353366684 0.19766204454833855 0.04403866466333168 -0.19766204454833855
2297.0818420326846 0.040588342862830966 -0.18980140962061767 0.959411657137169 0.18980140962061767 0.959411657137169 0.18980140962061767 0.040588342862830966 -0.18980140962061767
2402.270161361206 0.037401933137647767 -0.1822005117746472 0.9625980668623523 0.1822005117746472 0.9625980668623523 0.1822005117746472 0.037401933137647767 -0.1822005117746472
2512.2752801266033 0.03446057687136056 -0.17485700671538137 0.9655394231286393 0.17485700671538137 0.9655394231286393 0.17485700671538137 0.03446057687136056 -0.17485700671538137
2627.3177699376165 0.03174656236674192 -0.16776769680678133 0.9682534376332581 0.16776769680678133 0.9682534376332581 0.16776769680678133 0.03174656236674192 -0.16776769680678133
2747.6283028514745 0.029243291213873923 -0.16092866778947243 0.970756708786126 0.16092866778947243 0.970756708786126 0.16092866778947243 0.029243291213873923 -0.16092866778947243
2873.4481138951564 0.026935237501482714 -0.15433541073245138 0.9730647624985174 0.15433541073245138 0.9730647624985174 0.15433541073245138 0.026935237501482714 -0.15433541073245138
3005.0294847665045 0.02480790195091974 -0.14798293004361604 0.9751920980490805 0.14798293004361604 0.9751920980490805 0.14798293004361604 0.02480790195091974 -0.14798293004361604
3142.6362496850466 0.0228477627406032 -0.1418658384996222 0.9771522372593966 0.1418658384996222 0.9771522372593966 0.1418658384996222 0.0228477627406032 -0.1418658384996222
3286.544324406816 0.02104222449406596 -0.13597844033997183 0.978957775505934 0.13597844033997183 0.978957775505934 0.13597844033997183 0.02104222449406596 -0.13597844033997183
3437.0422594639017 0.019379566631702892 -0.13031480351027658 0.9806204333682971 0.13031480351027658 0.9806204333682971 0.13031480351027658 0.019379566631702892 -0.13031480351027658
3594.431818738024 0.017848892038459335 -0.12486882214237215 0.9821511079615408 0.12486882214237215 0.9821511079615408 0.12486882214237215 0.017848892038459335 -0.12486882214237215
3759.0285845282415 0.01644007677949254 -0.11963427033139101 0.9835599232205074 0.11963427033139101 0.9835599232205074 0.11963427033139101 0.01644007677949254 -0.11963427033139101
3931.162590326006 0.015143721404558802 -0.11460484821894346 0.9848562785954414 0.11460484821894346 0.9848562785954414 0.11460484821894346 0.015143721404558802 -0.11460484821894346
4111.17898256636 0.013951104219660265 -0.10977422132373449 0.9860488957803395 0.10977422132373449 0.9860488957803395 0.10977422132373449 0.013951104219660265 -0.10977422132373449
4299.438712682125 0.012854136770412536 -0.1051360539822801 0.9871458632295874 0.1051360539822801 0.9871458632295874 0.1051360539822801 0.012854136770412536 -0.1051360539822801
4496.31926084876 0.011845321673842616 -0.10068403767813279 0.9881546783261573 0.10068403767813279 0.9881546783261573 0.10068403767813279 0.011845321673842616 -0.10068403767813279
4702.215392871039 0.010917712851390442 -0.09641191495263653 0.9890822871486097 0.09641191495263653 0.9890822871486097 0.09641191495263653 0.010917712851390442 -0.09641191495263653
4917.539951729213 0.010064878152782892 -0.09231349950715906 0.9899351218472172 0.09231349950715906 0.9899351218472172 0.09231349950715906 0.010064878152782892 -0.09231349950715906
5142.724685371758 0.00928086431498207 -0.08838269302859061 0.9907191356850178 0.08838269302859061 0.9907191356850178 0.08838269302859061 0.00928086431498207 -0.08838269302859061
5378.221112414543 0.008560164169357976 -0.08461349919831015 0.991439835830642 0.08461349919831015 0.991439835830642 0.08461349919831015 0.008560164169357976 -0.08461349919831015
5624.501427482224 0.007897685990549286 -0.08100003528072239 0.9921023140094508 0.08100003528072239 0.9921023140094508 0.08100003528072239 0.007897685990549286 -0.08100003528072239
5882.059448007167 0.0072887248694000276 -0.07753654163113219 0.9927112751305999 0.07753654163113219 0.9927112751305999 0.07753654163113219 0.0072887248694000276 -0.07753654163113219
6151.41160438433 0.0067289359875191915 -0.07421738941390411 0.9932710640124809 0.07421738941390411 0.9932710640124809 0.07421738941390411 0.0067289359875191915 -0.07421738941390411
6433.097975467465 0.006214309670459666 -0.0710370867799848 0.9937856903295401 0.0710370867799848 0.9937856903295401 0.0710370867799848 0.006214309670459666 -0.0710370867799848
6727.683371482931 0.005741148098733691 -0.06799028371714026 0.9942588519012664 0.06799028371714026 0.9942588519012664 0.06799028371714026 0.005741148098733691 -0.06799028371714026
7035.758466532445 0.005306043559764514 -0.06507177575577917 0.9946939564402354 0.06507177575577917 0.9946939564402354 0.06507177575577917 0.005306043559764514 -0.06507177575577917
7357.940982955574 0.0049058581286710885 -0.06227650668709971 0.9950941418713288 0.06227650668709971 0.9950941418713288 0.06227650668709971 0.0049058581286710885 -0.06227650668709971
7694.876929926739 0.004537704671052186 -0.059599570427670605 0.9954622953289477 0.059599570427670605 0.9954622953289477 0.059599570427670605 0.004537704671052186 -0.059599570427670605
8047.241898770236 0.00419892906647771 -0.0570362121447322 0.9958010709335221 0.0570362121447322 0.9958010709335221 0.0570362121447322 0.00419892906647771 -0.0570362121447322
8415.742417590522 0.003887093557180146 -0.05458182873891742 0.9961129064428199 0.05458182873891742 0.9961129064428199 0.05458182873891742 0.003887093557180146 -0.05458182873891742
8801.117367933934 0.003599961132547399 -0.05223196876535862 0.9964000388674527 0.05223196876535862 0.9964000388674527 0.05223196876535862 0.003599961132547399 -0.05223196876535862
9204.139466322391 0.0033354808665731904 -0.04998233186004226 0.9966645191334268 0.04998233186004226 0.9966645191334268 0.04998233186004226 0.0033354808665731904 -0.04998233186004226
9625.61681362972 0.0030917741325347334 -0.04782876772572022 0.9969082258674651 0.04782876772572022 0.9969082258674651 0.04782876772572022 0.0030917741325347334 -0.04782876772572022
10066.394515407255 0.0028671216268948796 -0.04576727472073466 0.9971328783731052 0.04576727472073466 0.9971328783731052 0.04576727472073466 0.0028671216268948796 -0.04576727472073466
10527.356376407623 0.0026599511427314107 -0.04379399808487561 0.9973400488572685 0.04379399808487561 0.9973400488572685 0.04379399808487561 0.0026599511427314107 -0.04379399808487561
11009.426672704432 0.0024688260417365976 -0.041905227829024345 0.9975311739582635 0.041905227829024345 0.9975311739582635 0.041905227829024345 0.0024688260417365976 -0.041905227829024345
11513.572004961125 0.0022924343827529646 -0.040097396309966324 0.9977075656172469 0.040097396309966324 0.9977075656172469 0.040097396309966324 0.0022924343827529646 -0.040097396309966324
12040.803236564994 0.002129578673572354 -0.03836707550844845 0.9978704213264276 0.03836707550844845 0.9978704213264276 0.03836707550844845 0.002129578673572354 -0.03836707550844845
12592.177520512549 0.001979166220922107 -0.036710974027270624 0.9980208337790778 0.036710974027270624 0.9980208337790778 0.036710974027270624 0.001979166220922107 -0.036710974027270624
13168.800419110281 0.0018402000607757461 -0.03512593382676673 0.9981597999392243 0.03512593382676673 0.9981597999392243 0.03512593382676673 0.0018402000607757461 -0.03512593382676673
13771.82812074114 0.0017117704569739026 -0.03360892671715534 0.9982882295430261 0.03360892671715534 0.9982882295430261 0.03360892671715534 0.0017117704569739026 -0.03360892671715534
