!Murata Part Number: GRM21BR61A226ME44
!These Parameters are Measured in Series Mode Connection
!       o--ll--o
!Port1            Port2
!       o------o
!Operation Temp=25[degC], DC Bias Voltage=0[V]
!Freq. Start=100[Hz] Stop=6[GHz], 401[Steps]
!Data Generated on Jan 8, 2019
# Hz S RI R 50
!Freq.(Hz) S11(Real) S11(Imag) S21(Real) S21(Imag) S12(Real) S12(Imag) S22(Real) S22(Imag)
100.0 0.4797196428025052 -0.4920563089267003 0.5202803571974947 0.4920563089267003 0.5202803571974947 0.4920563089267003 0.4797196428025052 -0.4920563089267003
104.57921513303334 0.4579457009330241 -0.4906786022567985 0.542054299066976 0.4906786022567985 0.542054299066976 0.4906786022567985 0.4579457009330241 -0.4906786022567985
109.3681223784127 0.43633605976652884 -0.48835859994064795 0.5636639402334712 0.48835859994064795 0.5636639402334712 0.48835859994064795 0.43633605976652884 -0.48835859994064795
114.3763239890794 0.41497206728711733 -0.4851190973585348 0.5850279327128827 0.4851190973585348 0.5850279327128827 0.4851190973585348 0.41497206728711733 -0.4851190973585348
119.61386192579457 0.39393121909904244 -0.4809914195712676 0.6060687809009576 0.4809914195712676 0.6060687809009576 0.4809914195712676 0.39393121909904244 -0.4809914195712676
125.09123799230618 0.3732860592384012 -0.47601468049066126 0.6267139407615989 0.47601468049066126 0.6267139407615989 0.47601468049066126 0.3732860592384012 -0.47601468049066126
130.8194348925486 0.35310324016987216 -0.4702348853400879 0.646896759830128 0.4702348853400879 0.646896759830128 0.4702348853400879 0.35310324016987216 -0.4702348853400879
136.8099382520969 0.33344276498488484 -0.46370391359258606 0.6665572350151153 0.46370391359258606 0.6665572350151153 0.46370391359258606 0.33344276498488484 -0.46370391359258606
143.0747596480305 0.3143574255642364 -0.45647842249136583 0.6856425744357637 0.45647842249136583 0.6856425744357637 0.45647842249136583 0.3143574255642364 -0.45647842249136583
149.6264606933842 0.2958924411384596 -0.4486187117783947 0.7041075588615404 0.4486187117783947 0.7041075588615404 0.4486187117783947 0.2958924411384596 -0.4486187117783947
156.47817822447783 0.2780852929014293 -0.44018758855348333 0.7219147070985704 0.44018758855348333 0.7219147070985704 0.44018758855348333 0.2780852929014293 -0.44018758855348333
163.643650641628 0.260965742627055 -0.43124926759080945 0.7390342573729449 0.43124926759080945 0.7390342573729449 0.43124926759080945 0.260965742627055 -0.43124926759080945
171.13724545605763 0.24455601698214205 -0.42186833739370727 0.7554439830178581 0.42186833739370727 0.7554439830178581 0.42186833739370727 0.24455601698214205 -0.42186833739370727
178.97398809823787 0.22887113463810083 -0.41210881626791457 0.7711288653618991 0.41210881626791457 0.7711288653618991 0.41210881626791457 0.22887113463810083 -0.41210881626791457
187.1695920454257 0.21391935042246193 -0.40203331623665206 0.7860806495775381 0.40203331623665206 0.7860806495775381 0.40203331623665206 0.21391935042246193 -0.40203331623665206
195.74049032880657 0.19970268954434006 -0.3917023261644653 0.80029731045566 0.3917023261644653 0.80029731045566 0.3917023261644653 0.19970268954434006 -0.3917023261644653
204.70386848341695 0.186217545195849 -0.3811736193837389 0.813782454804151 0.3811736193837389 0.813782454804151 0.3811736193837389 0.186217545195849 -0.3811736193837389
214.0776990069143 0.17345531432148134 -0.3705017857192047 0.8265446856785186 0.3705017857192047 0.8265446856785186 0.3705017857192047 0.17345531432148134 -0.3705017857192047
223.88077739628844 0.16140304876909098 -0.3597378832747425 0.838596951230909 0.3597378832747425 0.838596951230909 0.3597378832747425 0.16140304876909098 -0.3597378832747425
234.132759834772 0.1500441020911024 -0.34892920178292747 0.8499558979088976 0.34892920178292747 0.8499558979088976 0.34892920178292747 0.1500441020911024 -0.34892920178292747
244.85420260451448 0.13935875567118808 -0.3381191267389851 0.860641244328812 0.3381191267389851 0.860641244328812 0.3381191267389851 0.13935875567118808 -0.3381191267389851
256.06660330404856 0.12932481136197957 -0.32734709189930533 0.8706751886380205 0.32734709189930533 0.8706751886380205 0.32734709189930533 0.12932481136197957 -0.32734709189930533
267.792443953192 0.11991814122952806 -0.31664860692477753 0.8800818587704717 0.31664860692477753 0.8800818587704717 0.31664860692477753 0.11991814122952806 -0.31664860692477753
280.0552360718164 0.11111318815472547 -0.30605534686452013 0.8888868118452745 0.30605534686452013 0.8888868118452745 0.30605534686452013 0.11111318815472547 -0.30605534686452013
292.87956782286926 0.10288341383320355 -0.29559529066438367 0.8971165861667965 0.29559529066438367 0.8971165861667965 0.29559529066438367 0.10288341383320355 -0.29559529066438367
306.2911533141767 0.0952016930799142 -0.2852928968024742 0.9047983069200859 0.2852928968024742 0.9047983069200859 0.2852928968024742 0.0952016930799142 -0.2852928968024742
320.3168841578819 0.08804065525738149 -0.27516930536361023 0.9119593447426185 0.27516930536361023 0.9119593447426185 0.27516930536361023 0.08804065525738149 -0.27516930536361023
334.9848833909005 0.08137297511325729 -0.26524255724282286 0.9186270248867427 0.26524255724282286 0.9186270248867427 0.26524255724282286 0.08137297511325729 -0.26524255724282286
350.32456186451077 0.07517161636266297 -0.2555278226098782 0.9248283836373371 0.2555278226098782 0.9248283836373371 0.2555278226098782 0.07517161636266297 -0.2555278226098782
366.36667721614316 0.06941003202965419 -0.2460376321880452 0.9305899679703459 0.2460376321880452 0.9305899679703459 0.2460376321880452 0.06941003202965419 -0.2460376321880452
383.1433955416162 0.06406232592563965 -0.23678210623758328 0.9359376740743605 0.23678210623758328 0.9359376740743605 0.23678210623758328 0.06406232592563965 -0.23678210623758328
400.68835589147574 0.059103379750516195 -0.22776917734421054 0.9408966202494838 0.22776917734421054 0.9408966202494838 0.22776917734421054 0.059103379750516195 -0.22776917734421054
419.03673772076064 0.054508950213984025 -0.21900480416951884 0.9454910497860161 0.21900480416951884 0.9454910497860161 0.21900480416951884 0.054508950213984025 -0.21900480416951884
438.225331427439 0.05025574034523054 -0.21049317421340036 0.9497442596547694 0.21049317421340036 0.9497442596547694 0.21049317421340036 0.05025574034523054 -0.21049317421340036
458.2926121209498 0.04632144883768152 -0.20223689436951903 0.9536785511623184 0.20223689436951903 0.9536785511623184 0.20223689436951903 0.04632144883768152 -0.20223689436951903
479.2788167687661 0.04268480090262056 -0.19423716863400423 0.9573151990973793 0.19423716863400423 0.9573151990973793 0.19423716863400423 0.04268480090262056 -0.19423716863400423
501.22602487566456 0.03932556371349872 -0.18649396277098892 0.9606744362865014 0.18649396277098892 0.9606744362865014 0.18649396277098892 0.03932556371349872 -0.18649396277098892
524.1782428574726 0.03622454913575394 -0.17900615606563425 0.963775450864246 0.17900615606563425 0.963775450864246 0.17900615606563425 0.03622454913575394 -0.17900615606563425
548.1814922784702 0.033363606071476454 -0.17177168052616187 0.9666363939285236 0.17177168052616187 0.9666363939285236 0.17177168052616187 0.033363606071476454 -0.17177168052616187
573.2839021293739 0.030725604414411883 -0.16478764805071425 0.9692743955855885 0.16478764805071425 0.9692743955855885 0.16478764805071425 0.030725604414411883 -0.16478764805071425
599.5358053309263 0.028294412313581905 -0.15805046617040172 0.971705587686418 0.15805046617040172 0.971705587686418 0.15805046617040172 0.028294412313581905 -0.15805046617040172
626.9898396565933 0.02605486818434322 -0.151555943031958 0.9739451318156569 0.151555943031958 0.9739451318156569 0.151555943031958 0.02605486818434322 -0.151555943031958
655.7010532767296 0.02399274868247335 -0.14529938230463524 0.9760072513175267 0.14529938230463524 0.9760072513175267 0.14529938230463524 0.02399274868247335 -0.14529938230463524
685.7270151358366 0.02209473366668031 -0.13927566869622476 0.9779052663333198 0.13927566869622476 0.9779052663333198 0.13927566869622476 0.02209473366668031 -0.13927566869622476
717.1279303842347 0.020348369013766347 -0.13347934474984396 0.9796516309862336 0.13347934474984396 0.9796516309862336 0.13347934474984396 0.020348369013766347 -0.13347934474984396
749.9667610955984 0.01874202801428181 -0.12790467957176166 0.9812579719857181 0.12790467957176166 0.9812579719857181 0.12790467957176166 0.01874202801428181 -0.12790467957176166
784.3093525124082 0.01726487196079447 -0.12254573011468439 0.9827351280392057 0.12254573011468439 0.9827351280392057 0.12254573011468439 0.01726487196079447 -0.12254573011468439
820.2245650724522 0.015906810442204294 -0.11739639561297434 0.9840931895577958 0.11739639561297434 0.9840931895577958 0.11739639561297434 0.015906810442204294 -0.11739639561297434
857.7844124811068 0.014658461772705349 -0.11245046573759647 0.9853415382272946 0.11245046573759647 0.9853415382272946 0.11245046573759647 0.014658461772705349 -0.11245046573759647
897.0642061062428 0.013511113910449747 -0.10770166300994732 0.9864888860895503 0.10770166300994732 0.9864888860895503 0.10770166300994732 0.013511113910449747 -0.10770166300994732
938.1427059852851 0.012456686156640126 -0.10314367998539938 0.9875433138433597 0.10314367998539938 0.9875433138433597 0.10314367998539938 0.012456686156640126 -0.10314367998539938
981.102278747212 0.011487691869070237 -0.09877021168945851 0.9885123081309299 0.09877021168945851 0.9885123081309299 0.09877021168945851 0.011487691869070237 -0.09877021168945851
1026.0290627661395 0.010597202373838734 -0.09457498376176994 0.9894027976261612 0.09457498376176994 0.9894027976261612 0.09457498376176994 0.010597202373838734 -0.09457498376176994
1073.0131408776467 0.00977881221419361 -0.09055177673568693 0.9902211877858061 0.09055177673568693 0.9902211877858061 0.09055177673568693 0.00977881221419361 -0.09055177673568693
1122.1487210041523 0.009026605835584978 -0.08669444685356378 0.990973394164415 0.08669444685356378 0.990973394164415 0.08669444685356378 0.009026605835584978 -0.08669444685356378
1173.5343250515148 0.008335125770577814 -0.08299694379022024 0.9916648742294223 0.08299694379022024 0.9916648742294223 0.08299694379022024 0.008335125770577814 -0.08299694379022024
1227.2729864556143 0.007699342356023317 -0.07945332562905785 0.9923006576439768 0.07945332562905785 0.9923006576439768 0.07945332562905785 0.007699342356023317 -0.07945332562905785
1283.4724567750195 0.0071146249876500815 -0.07605777140705686 0.9928853750123497 0.07605777140705686 0.9928853750123497 0.07605777140705686 0.0071146249876500815 -0.07605777140705686
1342.245421743976 0.006576714893947532 -0.07280459151638193 0.9934232851060526 0.07280459151638193 0.9934232851060526 0.07280459151638193 0.006576714893947532 -0.07280459151638193
1403.7097272189235 0.006081699391872491 -0.06968823622170398 0.9939183006081274 0.06968823622170398 0.9939183006081274 0.06968823622170398 0.006081699391872491 -0.06968823622170398
1467.9886154715937 0.005625987571544524 -0.06670330252381237 0.9943740124284555 0.06670330252381237 0.9943740124284555 0.06670330252381237 0.005625987571544524 -0.06670330252381237
1535.2109723024755 0.00520628734573843 -0.0638445395719634 0.9947937126542615 0.0638445395719634 0.9947937126542615 0.0638445395719634 0.00520628734573843 -0.0638445395719634
1605.5115854701387 0.0048195837926244345 -0.061106852800100635 0.9951804162073755 0.061106852800100635 0.9951804162073755 0.061106852800100635 0.0048195837926244345 -0.061106852800100635
1679.0314149545911 0.004463118716763565 -0.05848530693607701 0.9955368812832364 0.05848530693607701 0.9955368812832364 0.05848530693607701 0.004463118716763565 -0.05848530693607701
1755.9178755965756 0.00413437135363896 -0.05597512800887099 0.9958656286463612 0.05597512800887099 0.9958656286463612 0.05597512800887099 0.00413437135363896 -0.05597512800887099
1836.3251326795319 0.003831040146648962 -0.05357170445708365 0.9961689598533511 0.05357170445708365 0.9961689598533511 0.05357170445708365 0.003831040146648962 -0.05357170445708365
1920.4144110468878 0.0035510255320009517 -0.05127058742328161 0.9964489744679991 0.05127058742328161 0.9964489744679991 0.05127058742328161 0.0035510255320009517 -0.05127058742328161
2008.3543183745 0.003292413675659431 -0.04906749030345077 0.9967075863243404 0.04906749030345077 0.9967075863243404 0.04906749030345077 0.003292413675659431 -0.04906749030345077
2100.321183246434 0.003053461116617626 -0.04695828760926145 0.9969465388833821 0.04695828760926145 0.9969465388833821 0.04695828760926145 0.003053461116617626 -0.04695828760926145
2196.4994087119585 0.0028325802813854474 -0.04493901319310152 0.9971674197186146 0.04493901319310152 0.9971674197186146 0.04493901319310152 0.0028325802813854474 -0.04493901319310152
2297.0818420326846 0.002628325844801783 -0.04300585788178279 0.9973716741551982 0.04300585788178279 0.9973716741551982 0.04300585788178279 0.002628325844801783 -0.04300585788178279
2402.270161361206 0.0024393819212211168 -0.04115516656407456 0.9975606180787788 0.04115516656407456 0.9975606180787788 0.04115516656407456 0.0024393819212211168 -0.04115516656407456
2512.2752801266033 0.0022645500770624924 -0.0393834347791606 0.9977354499229376 0.0393834347791606 0.9977354499229376 0.0393834347791606 0.0022645500770624924 -0.0393834347791606
2627.3177699376165 0.0021027381601157556 -0.03768730485696118 0.9978972618398843 0.03768730485696118 0.9978972618398843 0.03768730485696118 0.0021027381601157556 -0.03768730485696118
2747.6283028514745 0.0019529499426022066 -0.03606356166611215 0.9980470500573978 0.03606356166611215 0.9980470500573978 0.03606356166611215 0.0019529499426022066 -0.03606356166611215
2873.4481138951564 0.001814275573788022 -0.0345091280303381 0.9981857244262121 0.0345091280303381 0.9981857244262121 0.0345091280303381 0.001814275573788022 -0.0345091280303381
3005.0294847665045 0.0016858828342174149 -0.03302105987814764 0.9983141171657824 0.03302105987814764 0.9983141171657824 0.03302105987814764 0.0016858828342174149 -0.03302105987814764
3142.6362496850466 0.0015670091778624228 -0.03159654119352323 0.9984329908221377 0.03159654119352323 0.9984329908221377 0.03159654119352323 0.0015670091778624228 -0.03159654119352323
3286.544324406816 0.0014569545413305395 -0.030232878836088002 0.9985430454586695 0.030232878836088002 0.9985430454586695 0.030232878836088002 0.0014569545413305395 -0.030232878836088002
3437.0422594639017 0.0013550748914630338 -0.028927497297862606 0.998644925108537 0.028927497297862606 0.998644925108537 0.028927497297862606 0.0013550748914630338 -0.028927497297862606
3594.431818738024 0.0012607764749265643 -0.0276779334601674 0.9987392235250735 0.0276779334601674 0.9987392235250735 0.0276779334601674 0.0012607764749265643 -0.0276779334601674
3759.0285845282415 0.0011735107264033333 -0.026481831408690856 0.9988264892735967 0.026481831408690856 0.9988264892735967 0.026481831408690856 0.0011735107264033333 -0.026481831408690856
3931.162590326006 0.0010927697862431415 -0.025336937357606226 0.9989072302137567 0.025336937357606226 0.9989072302137567 0.025336937357606226 0.0010927697862431415 -0.025336937357606226
4111.17898256636 0.0010180825743104976 -0.02424109472536152 0.9989819174256895 0.02424109472536152 0.9989819174256895 0.02424109472536152 0.0010180825743104976 -0.02424109472536152
4299.438712682125 9.490113644200314E-4 -0.02319223939591807 0.9990509886355801 0.02319223939591807 0.9990509886355801 0.02319223939591807 9.490113644200314E-4 -0.02319223939591807
4496.31926084876 8.85148803215586E-4 -0.022188395190288524 0.9991148511967842 0.022188395190288524 0.9991148511967842 0.022188395190288524 8.85148803215586E-4 -0.022188395190288524
4702.215392871039 8.26115318482649E-4 -0.0212276695646827 0.9991738846815174 0.0212276695646827 0.9991738846815174 0.0212276695646827 8.26115318482649E-4 -0.0212276695646827
4917.539951729213 7.715568644550784E-4 -0.020308249543777895 0.9992284431355448 0.020308249543777895 0.9992284431355448 0.020308249543777895 7.715568644550784E-4 -0.020308249543777895
5142.724685371758 7.21142955384173E-4 -0.019428397890852492 0.9992788570446159 0.019428397890852492 0.9992788570446159 0.019428397890852492 7.21142955384173E-4 -0.019428397890852492
5378.221112414543 6.745649431513891E-4 -0.018586449510911682 0.9993254350568486 0.018586449510911682 0.9993254350568486 0.018586449510911682 6.745649431513891E-4 -0.018586449510911682
5624.501427482224 6.31534499699883E-4 -0.017780808078548857 0.9993684655003002 0.017780808078548857 0.9993684655003002 0.017780808078548857 6.31534499699883E-4 -0.017780808078548857
5882.059448007167 5.917822702372308E-4 -0.017009942879097392 0.9994082177297628 0.017009942879097392 0.9994082177297628 0.017009942879097392 5.917822702372308E-4 -0.017009942879097392
6151.41160438433 5.550566682694769E-4 -0.01627238584954422 0.9994449433317305 0.01627238584954422 0.9994449433317305 0.01627238584954422 5.550566682694769E-4 -0.01627238584954422
6433.097975467465 5.211227883650869E-4 -0.015566728804564516 0.999478877211635 0.015566728804564516 0.999478877211635 0.015566728804564516 5.211227883650869E-4 -0.015566728804564516
6727.683371482931 4.89761416970811E-4 -0.014891620832737108 0.9995102385830293 0.014891620832737108 0.9995102385830293 0.014891620832737108 4.89761416970811E-4 -0.014891620832737108
7035.758466532445 4.607681255154239E-4 -0.01424576584834692 0.9995392318744846 0.01424576584834692 0.9995392318744846 0.01424576584834692 4.607681255154239E-4 -0.01424576584834692
7357.940982955574 4.3395243339188323E-4 -0.013627920285009315 0.9995660475666078 0.013627920285009315 0.9995660475666078 0.013627920285009315 4.3395243339188323E-4 -0.013627920285009315
7694.876929926739 4.091370311904711E-4 -0.013036890918511823 0.9995908629688096 0.013036890918511823 0.9995908629688096 0.013036890918511823 4.091370311904711E-4 -0.013036890918511823
8047.241898770236 3.86157056780057E-4 -0.012471532807627814 0.9996138429432201 0.012471532807627814 0.9996138429432201 0.012471532807627814 3.86157056780057E-4 -0.012471532807627814
8415.742417590522 3.64859418537374E-4 -0.011930747343099148 0.9996351405814624 0.011930747343099148 0.9996351405814624 0.011930747343099148 3.64859418537374E-4 -0.011930747343099148
8801.117367933934 3.4510216125493466E-4 -0.011413480396416825 0.999654897838745 0.011413480396416825 0.999654897838745 0.011413480396416825 3.4510216125493466E-4 -0.011413480396416825
9204.139466322391 3.2675387107550973E-4 -0.010918720561374017 0.9996732461289243 0.010918720561374017 0.9996732461289243 0.010918720561374017 3.2675387107550973E-4 -0.010918720561374017
9625.61681362972 3.0969311626889815E-4 -0.010445497482564983 0.9996903068837308 0.010445497482564983 0.9996903068837308 0.010445497482564983 3.0969311626889815E-4 -0.010445497482564983
10066.394515407255 2.938079208517098E-4 -0.009992880266012149 0.9997061920791483 0.009992880266012149 0.9997061920791483 0.009992880266012149 2.938079208517098E-4 -0.009992880266012149
10527.356376407623 2.789952680211472E-4 -0.009559975967890983 0.9997210047319789 0.009559975967890983 0.9997210047319789 0.009559975967890983 2.789952680211472E-4 -0.009559975967890983
11009.426672704432 2.651606301977885E-4 -0.00914592815787026 0.9997348393698021 0.00914592815787026 0.9997348393698021 0.00914592815787026 2.651606301977885E-4 -0.00914592815787026
11513.572004961125 2.5221752221826256E-4 -0.008749915553887119 0.999747782477782 0.008749915553887119 0.999747782477782 0.008749915553887119 2.5221752221826256E-4 -0.008749915553887119
12040.803236564994 2.4008707395320743E-4 -0.008371150725239246 0.9997599129260466 0.008371150725239246 0.9997599129260466 0.008371150725239246 2.4008707395320743E-4 -0.008371150725239246
12592.177520512549 2.2869761841277914E-4 -0.008008878860719236 0.9997713023815872 0.008008878860719236 0.9997713023815872 0.008008878860719236 2.2869761841277914E-4 -0.008008878860719236
