!Murata Part Number: GRM155R61H104KE14
!These Parameters are Measured in Series Mode Connection
!       o--ll--o
!Port1            Port2
!       o------o
!Operation Temp=25[degC], DC Bias Voltage=0[V]
!Freq. Start=100[Hz] Stop=6[GHz], 401[Steps]
!Data Generated on Nov 6, 2018
# Hz S RI R 50
!Freq.(Hz) S11(Real) S11(Imag) S21(Real) S21(Imag) S12(Real) S12(Imag) S22(Real) S22(Imag)
100.0 0.9999355757280991 -0.005802078661801852 6.44242719009403E-5 0.005802078661801852 6.44242719009403E-5 0.005802078661801852 0.9999355757280991 -0.005802078661801852
104.57921513303334 0.9999310267595655 -0.00606677660891409 6.897324043460208E-5 0.00606677660891409 6.897324043460208E-5 0.00606677660891409 0.9999310267595655 -0.00606677660891409
109.3681223784127 0.999926117099641 -0.006343551507838958 7.388290035901606E-5 0.006343551507838958 7.388290035901606E-5 0.006343551507838958 0.999926117099641 -0.006343551507838958
114.3763239890794 0.9999208160338419 -0.006632952499098676 7.91839661581471E-5 0.006632952499098676 7.91839661581471E-5 0.006632952499098676 0.9999208160338419 -0.006632952499098676
119.61386192579457 0.9999150904547816 -0.006935553617751501 8.490954521848184E-5 0.006935553617751501 8.490954521848184E-5 0.006935553617751501 0.9999150904547816 -0.006935553617751501
125.09123799230618 0.9999089046607453 -0.0072519549750651455 9.109533925473774E-5 0.0072519549750651455 9.109533925473774E-5 0.0072519549750651455 0.9999089046607453 -0.0072519549750651455
130.8194348925486 0.999902220125481 -0.0075827840003356885 9.777987451888267E-5 0.0075827840003356885 9.777987451888267E-5 0.0075827840003356885 0.999902220125481 -0.0075827840003356885
136.8099382520969 0.9998949952351044 -0.007928696744402462 1.050047648955998E-4 0.007928696744402462 1.050047648955998E-4 0.007928696744402462 0.9998949952351044 -0.007928696744402462
143.0747596480305 0.999887184987792 -0.008290379246057468 1.1281501220800556E-4 0.008290379246057468 1.1281501220800556E-4 0.008290379246057468 0.999887184987792 -0.008290379246057468
149.6264606933842 0.9998787406517987 -0.008668548962155522 1.2125934820128637E-4 0.008668548962155522 1.2125934820128637E-4 0.008668548962155522 0.9998787406517987 -0.008668548962155522
156.47817822447783 0.9998696093772774 -0.009063956261821072 1.3039062272260433E-4 0.009063956261821072 1.3039062272260433E-4 0.009063956261821072 0.9998696093772774 -0.009063956261821072
163.643650641628 0.9998597337574369 -0.00947738598474907 1.402662425632231E-4 0.00947738598474907 1.402662425632231E-4 0.00947738598474907 0.9998597337574369 -0.00947738598474907
171.13724545605763 0.9998490513347276 -0.009909659063244803 1.509486652724642E-4 0.009909659063244803 1.509486652724642E-4 0.009909659063244803 0.9998490513347276 -0.009909659063244803
178.97398809823787 0.999837494047997 -0.010361634207377447 1.6250595200301352E-4 0.010361634207377447 1.6250595200301352E-4 0.010361634207377447 0.999837494047997 -0.010361634207377447
187.1695920454257 0.9998249876168745 -0.010834209652469007 1.7501238312555575E-4 0.010834209652469007 1.7501238312555575E-4 0.010834209652469007 0.9998249876168745 -0.010834209652469007
195.74049032880657 0.9998114508600082 -0.011328324968133527 1.885491399918114E-4 0.011328324968133527 1.885491399918114E-4 0.011328324968133527 0.9998114508600082 -0.011328324968133527
204.70386848341695 0.9997967949441273 -0.011844962928238823 2.0320505587275795E-4 0.011844962928238823 2.0320505587275795E-4 0.011844962928238823 0.9997967949441273 -0.011844962928238823
214.0776990069143 0.9997809225611963 -0.012385151441491885 2.1907743880375516E-4 0.012385151441491885 2.1907743880375516E-4 0.012385151441491885 0.9997809225611963 -0.012385151441491885
223.88077739628844 0.999763727031117 -0.01294996554283747 2.3627296888293687E-4 0.01294996554283747 2.3627296888293687E-4 0.01294996554283747 0.999763727031117 -0.01294996554283747
234.132759834772 0.9997450913274571 -0.013540529446484146 2.549086725428397E-4 0.013540529446484146 2.549086725428397E-4 0.013540529446484146 0.9997450913274571 -0.013540529446484146
244.85420260451448 0.9997248870235117 -0.014158018662090696 2.751129764883447E-4 0.014158018662090696 2.751129764883447E-4 0.014158018662090696 0.9997248870235117 -0.014158018662090696
256.06660330404856 0.9997029731556057 -0.014803662176410607 2.9702684439418824E-4 0.014803662176410607 2.9702684439418824E-4 0.014803662176410607 0.9997029731556057 -0.014803662176410607
267.792443953192 0.999679194999906 -0.015478744703444817 3.2080500009400674E-4 0.015478744703444817 3.2080500009400674E-4 0.015478744703444817 0.999679194999906 -0.015478744703444817
280.0552360718164 0.9996533827581353 -0.016184609006839545 3.466172418646996E-4 0.016184609006839545 3.466172418646996E-4 0.016184609006839545 0.9996533827581353 -0.016184609006839545
292.87956782286926 0.9996253501465063 -0.016922658298834513 3.746498534935929E-4 0.016922658298834513 3.746498534935929E-4 0.016922658298834513 0.9996253501465063 -0.016922658298834513
306.2911533141767 0.9995948928809221 -0.017694358720480866 4.051071190779125E-4 0.017694358720480866 4.051071190779125E-4 0.017694358720480866 0.9995948928809221 -0.017694358720480866
320.3168841578819 0.9995617870500949 -0.018501241908080984 4.382129499050814E-4 0.018501241908080984 4.382129499050814E-4 0.018501241908080984 0.9995617870500949 -0.018501241908080984
334.9848833909005 0.9995257873667449 -0.01934490765084682 4.7421263325505945E-4 0.01934490765084682 4.7421263325505945E-4 0.01934490765084682 0.9995257873667449 -0.01934490765084682
350.32456186451077 0.9994866252854874 -0.020227026644635493 5.133747145126226E-4 0.020227026644635493 5.133747145126226E-4 0.020227026644635493 0.9994866252854874 -0.020227026644635493
366.36667721614316 0.999444006974453 -0.021149343346320057 5.559930255469925E-4 0.021149343346320057 5.559930255469925E-4 0.021149343346320057 0.999444006974453 -0.021149343346320057
383.1433955416162 0.9993976111261101 -0.022113678932918632 6.023888738898619E-4 0.022113678932918632 6.023888738898619E-4 0.022113678932918632 0.9993976111261101 -0.022113678932918632
400.68835589147574 0.9993470865911835 -0.023121934369068772 6.529134088164613E-4 0.023121934369068772 6.529134088164613E-4 0.023121934369068772 0.9993470865911835 -0.023121934369068772
419.03673772076064 0.9992920498179807 -0.024176093585829065 7.079501820191435E-4 0.024176093585829065 7.079501820191435E-4 0.024176093585829065 0.9992920498179807 -0.024176093585829065
438.225331427439 0.9992320820778151 -0.025278226773144213 7.67917922184934E-4 0.025278226773144213 7.67917922184934E-4 0.025278226773144213 0.9992320820778151 -0.025278226773144213
458.2926121209498 0.9991667264555137 -0.026430493787639866 8.332735444863661E-4 0.026430493787639866 8.332735444863661E-4 0.026430493787639866 0.9991667264555137 -0.026430493787639866
479.2788167687661 0.9990954845821821 -0.027635147676728505 9.045154178179839E-4 0.027635147676728505 9.045154178179839E-4 0.027635147676728505 0.9990954845821821 -0.027635147676728505
501.22602487566456 0.9990178130853846 -0.028894538319293388 9.82186914615371E-4 0.028894538319293388 9.82186914615371E-4 0.028894538319293388 0.9990178130853846 -0.028894538319293388
524.1782428574726 0.9989331197296598 -0.030211116182453496 0.0010668802703402173 0.030211116182453496 0.0010668802703402173 0.030211116182453496 0.9989331197296598 -0.030211116182453496
548.1814922784702 0.9988407592177357 -0.03158743619304783 0.0011592407822643956 0.03158743619304783 0.0011592407822643956 0.03158743619304783 0.9988407592177357 -0.03158743619304783
573.2839021293739 0.9987400286199036 -0.03302616172145408 0.0012599713800964351 0.03302616172145408 0.0012599713800964351 0.03302616172145408 0.9987400286199036 -0.03302616172145408
599.5358053309263 0.9986301623956847 -0.034530068674084466 0.0013698376043153604 0.034530068674084466 0.0013698376043153604 0.034530068674084466 0.9986301623956847 -0.034530068674084466
626.9898396565933 0.998510326968151 -0.036102049689282226 0.0014896730318490724 0.036102049689282226 0.0014896730318490724 0.036102049689282226 0.998510326968151 -0.036102049689282226
655.7010532767296 0.9983796148070204 -0.03774511842924736 0.0016203851929795315 0.03774511842924736 0.0016203851929795315 0.03774511842924736 0.9983796148070204 -0.03774511842924736
685.7270151358366 0.9982370379719242 -0.039462413957911384 0.0017629620280758187 0.039462413957911384 0.0017629620280758187 0.039462413957911384 0.9982370379719242 -0.039462413957911384
717.1279303842347 0.9980815210620781 -0.0412572051912019 0.001918478937921918 0.0412572051912019 0.001918478937921918 0.0412572051912019 0.9980815210620781 -0.0412572051912019
749.9667610955984 0.9979118935130412 -0.04313289540172188 0.002088106486958671 0.04313289540172188 0.002088106486958671 0.04313289540172188 0.9979118935130412 -0.04313289540172188
784.3093525124082 0.9977268811753991 -0.04509302675434851 0.002273118824600815 0.04509302675434851 0.002273118824600815 0.04509302675434851 0.9977268811753991 -0.04509302675434851
820.2245650724522 0.9975250971042191 -0.047141284842470814 0.002474902895781027 0.047141284842470814 0.002474902895781027 0.047141284842470814 0.9975250971042191 -0.047141284842470814
857.7844124811068 0.9973050314821685 -0.04928150318638735 0.002694968517831565 0.04928150318638735 0.002694968517831565 0.04928150318638735 0.9973050314821685 -0.04928150318638735
897.0642061062428 0.9970650405934803 -0.05151766764566336 0.0029349594065195906 0.05151766764566336 0.0029349594065195906 0.05151766764566336 0.9970650405934803 -0.05151766764566336
938.1427059852851 0.9968033347607493 -0.05385392068592327 0.003196665239250594 0.05385392068592327 0.003196665239250594 0.05385392068592327 0.9968033347607493 -0.05385392068592327
981.102278747212 0.9965179651521284 -0.056294565427611395 0.0034820348478716316 0.056294565427611395 0.0034820348478716316 0.056294565427611395 0.9965179651521284 -0.056294565427611395
1026.0290627661395 0.9962068093631368 -0.05884406938972524 0.0037931906368633534 0.05884406938972524 0.0037931906368633534 0.05884406938972524 0.9962068093631368 -0.05884406938972524
1073.0131408776467 0.9958675556752563 -0.061507067825506995 0.004132444324743764 0.061507067825506995 0.004132444324743764 0.061507067825506995 0.9958675556752563 -0.061507067825506995
1122.1487210041523 0.99549768589301 -0.06428836652971813 0.004502314106989955 0.06428836652971813 0.004502314106989955 0.06428836652971813 0.99549768589301 -0.06428836652971813
1173.5343250515148 0.9950944566624562 -0.06719294397859649 0.004905543337543592 0.06719294397859649 0.004905543337543592 0.06719294397859649 0.9950944566624562 -0.06719294397859649
1227.2729864556143 0.9946548791771023 -0.07022595264410324 0.005345120822897751 0.07022595264410324 0.005345120822897751 0.07022595264410324 0.9946548791771023 -0.07022595264410324
1283.4724567750195 0.9941756971821674 -0.07339271930377196 0.005824302817832578 0.07339271930377196 0.005824302817832578 0.07339271930377196 0.9941756971821674 -0.07339271930377196
1342.245421743976 0.9936533631948957 -0.0766987441464906 0.006346636805104274 0.0766987441464906 0.006346636805104274 0.0766987441464906 0.9936533631948957 -0.0766987441464906
1403.7097272189235 0.9930840128671372 -0.08014969845290495 0.006915987132862712 0.08014969845290495 0.006915987132862712 0.08014969845290495 0.9930840128671372 -0.08014969845290495
1467.9886154715937 0.9924634374266572 -0.08375142060673547 0.007536562573342901 0.08375142060673547 0.007536562573342901 0.08375142060673547 0.9924634374266572 -0.08375142060673547
1535.2109723024755 0.9917870541455418 -0.08750991016992805 0.00821294585445821 0.08750991016992805 0.00821294585445821 0.08750991016992805 0.9917870541455418 -0.08750991016992805
1605.5115854701387 0.9910498747977767 -0.09143131972987747 0.008950125202223208 0.09143131972987747 0.008950125202223208 0.09143131972987747 0.9910498747977767 -0.09143131972987747
1679.0314149545911 0.9902464720838129 -0.0955219442005297 0.009753527916187084 0.0955219442005297 0.009753527916187084 0.0955219442005297 0.9902464720838129 -0.0955219442005297
1755.9178755965756 0.9893709440182167 -0.09978820723050985 0.010629055981783367 0.09978820723050985 0.010629055981783367 0.09978820723050985 0.9893709440182167 -0.09978820723050985
1836.3251326795319 0.9884168762980405 -0.10423664434006619 0.011583123701959384 0.10423664434006619 0.011583123701959384 0.10423664434006619 0.9884168762980405 -0.10423664434006619
1920.4144110468878 0.9873773026953692 -0.10887388237420492 0.012622697304630759 0.10887388237420492 0.012622697304630759 0.10887388237420492 0.9873773026953692 -0.10887388237420492
2008.3543183745 0.9862446635488663 -0.113706614821719 0.013755336451133634 0.113706614821719 0.013755336451133634 0.113706614821719 0.9862446635488663 -0.113706614821719
2100.321183246434 0.985010762467601 -0.11874157250895226 0.014989237532398957 0.11874157250895226 0.014989237532398957 0.11874157250895226 0.985010762467601 -0.11874157250895226
2196.4994087119585 0.9836667214076702 -0.12398548913347403 0.016333278592329876 0.12398548913347403 0.016333278592329876 0.12398548913347403 0.9836667214076702 -0.12398548913347403
2297.0818420326846 0.9822029343400384 -0.12944506105715195 0.017797065659961718 0.12944506105715195 0.017797065659961718 0.12944506105715195 0.9822029343400384 -0.12944506105715195
2402.270161361206 0.9806090197985186 -0.13512690073160505 0.01939098020148132 0.13512690073160505 0.01939098020148132 0.13512690073160505 0.9806090197985186 -0.13512690073160505
2512.2752801266033 0.9788737726818767 -0.14103748308338138 0.02112622731812334 0.14103748308338138 0.02112622731812334 0.14103748308338138 0.9788737726818767 -0.14103748308338138
2627.3177699376165 0.9769851157855546 -0.1471830841436242 0.023014884214445367 0.1471830841436242 0.023014884214445367 0.1471830841436242 0.9769851157855546 -0.1471830841436242
2747.6283028514745 0.9749300516582678 -0.15356971117018361 0.025069948341732207 0.15356971117018361 0.025069948341732207 0.15356971117018361 0.9749300516582678 -0.15356971117018361
2873.4481138951564 0.9726946155182866 -0.16020302348239865 0.027305384481713445 0.16020302348239865 0.027305384481713445 0.16020302348239865 0.9726946155182866 -0.16020302348239865
3005.0294847665045 0.9702638301249065 -0.16708824321401125 0.029736169875093695 0.16708824321401125 0.029736169875093695 0.16708824321401125 0.9702638301249065 -0.16708824321401125
3142.6362496850466 0.9676216636833246 -0.17423005519245136 0.032378336316675346 0.17423005519245136 0.032378336316675346 0.17423005519245136 0.9676216636833246 -0.17423005519245136
3286.544324406816 0.9647509920663159 -0.18163249517829977 0.03524900793368415 0.18163249517829977 0.03524900793368415 0.18163249517829977 0.9647509920663159 -0.18163249517829977
3437.0422594639017 0.9616335668634478 -0.18929882575312482 0.038366433136552136 0.18929882575312482 0.038366433136552136 0.18929882575312482 0.9616335668634478 -0.18929882575312482
3594.431818738024 0.9582499910169935 -0.19723139923389527 0.04175000898300652 0.19723139923389527 0.04175000898300652 0.19723139923389527 0.9582499910169935 -0.19723139923389527
3759.0285845282415 0.9545797040708793 -0.20543150712538324 0.045420295929120766 0.20543150712538324 0.045420295929120766 0.20543150712538324 0.9545797040708793 -0.20543150712538324
3931.162590326006 0.950600979341282 -0.21389921580676358 0.049399020658718096 0.21389921580676358 0.049399020658718096 0.21389921580676358 0.950600979341282 -0.21389921580676358
4111.17898256636 0.946290935609319 -0.22263318839398585 0.053709064390681016 0.22263318839398585 0.053709064390681016 0.22263318839398585 0.946290935609319 -0.22263318839398585
4299.438712682125 0.9416255662299464 -0.23163049303497849 0.0583744337700535 0.23163049303497849 0.0583744337700535 0.23163049303497849 0.9416255662299464 -0.23163049303497849
4496.31926084876 0.9365797888362464 -0.24088639829003253 0.06342021116375363 0.24088639829003253 0.06342021116375363 0.24088639829003253 0.9365797888362464 -0.24088639829003253
4702.215392871039 0.9311275190811337 -0.25039415673425486 0.06887248091886616 0.25039415673425486 0.06887248091886616 0.25039415673425486 0.9311275190811337 -0.25039415673425486
4917.539951729213 0.925241772081786 -0.26014477850137574 0.07475822791821395 0.26014477850137574 0.07475822791821395 0.26014477850137574 0.925241772081786 -0.26014477850137574
5142.724685371758 0.9188947953942598 -0.2701267971752242 0.08110520460574011 0.2701267971752242 0.08110520460574011 0.2701267971752242 0.9188947953942598 -0.2701267971752242
5378.221112414543 0.9120582374206629 -0.28032603123082656 0.08794176257933711 0.28032603123082656 0.08794176257933711 0.28032603123082656 0.9120582374206629 -0.28032603123082656
5624.501427482224 0.9047033551079381 -0.29072534513085524 0.0952966448920619 0.29072534513085524 0.0952966448920619 0.29072534513085524 0.9047033551079381 -0.29072534513085524
5882.059448007167 0.8968012646001382 -0.30130441518849754 0.10319873539986184 0.30130441518849754 0.10319873539986184 0.30130441518849754 0.8968012646001382 -0.30130441518849754
6151.41160438433 0.8883232381151654 -0.31203950639981193 0.11167676188483455 0.31203950639981193 0.11167676188483455 0.31203950639981193 0.8883232381151654 -0.31203950639981193
6433.097975467465 0.8792410496895884 -0.32290326760168137 0.12075895031041159 0.32290326760168137 0.12075895031041159 0.32290326760168137 0.8792410496895884 -0.32290326760168137
6727.683371482931 0.8695273715276618 -0.3338645534867238 0.13047262847233823 0.3338645534867238 0.13047262847233823 0.3338645534867238 0.8695273715276618 -0.3338645534867238
7035.758466532445 0.859156221461833 -0.3448882831494294 0.140843778538167 0.3448882831494294 0.140843778538167 0.3448882831494294 0.859156221461833 -0.3448882831494294
7357.940982955574 0.848103460447272 -0.3559353458762931 0.15189653955272797 0.3559353458762931 0.15189653955272797 0.3559353458762931 0.848103460447272 -0.3559353458762931
7694.876929926739 0.8363473370504539 -0.3669625657360858 0.16365266294954617 0.3669625657360858 0.16365266294954617 0.3669625657360858 0.8363473370504539 -0.3669625657360858
8047.241898770236 0.8238690735492031 -0.37792273706618823 0.17613092645079687 0.37792273706618823 0.17613092645079687 0.37792273706618823 0.8238690735492031 -0.37792273706618823
8415.742417590522 0.8106534855641695 -0.3887647430636466 0.18934651443583045 0.3887647430636466 0.18934651443583045 0.3887647430636466 0.8106534855641695 -0.3887647430636466
8801.117367933934 0.7966896241503169 -0.3994337692430221 0.20331037584968317 0.3994337692430221 0.20331037584968317 0.3994337692430221 0.7966896241503169 -0.3994337692430221
9204.139466322391 0.7819714260956496 -0.4098716223854207 0.21802857390435026 0.4098716223854207 0.21802857390435026 0.4098716223854207 0.7819714260956496 -0.4098716223854207
9625.61681362972 0.7664983549550978 -0.42001716365633823 0.2335016450449024 0.42001716365633823 0.2335016450449024 0.42001716365633823 0.7664983549550978 -0.42001716365633823
10066.394515407255 0.7502760122917194 -0.4298068617263878 0.2497239877082806 0.4298068617263878 0.2497239877082806 0.4298068617263878 0.7502760122917194 -0.4298068617263878
10527.356376407623 0.7333166959517716 -0.43917546794997375 0.2666833040482284 0.43917546794997375 0.2666833040482284 0.43917546794997375 0.7333166959517716 -0.43917546794997375
11009.426672704432 0.7156398802451223 -0.448056810972321 0.28436011975487774 0.448056810972321 0.28436011975487774 0.448056810972321 0.7156398802451223 -0.448056810972321
11513.572004961125 0.6972725919330383 -0.45638470266027464 0.3027274080669617 0.45638470266027464 0.3027274080669617 0.45638470266027464 0.6972725919330383 -0.45638470266027464
12040.803236564994 0.6782496562242413 -0.4640939411994916 0.3217503437757587 0.4640939411994916 0.3217503437757587 0.4640939411994916 0.6782496562242413 -0.4640939411994916
