!Murata Part Number: GRM188R60J105KA01
!These Parameters are Measured in Series Mode Connection
!       o--ll--o
!Port1            Port2
!       o------o
!Operation Temp=25[degC], DC Bias Voltage=0[V]
!Freq. Start=100[Hz] Stop=6[GHz], 401[Steps]
!Data Generated on Jan 10, 2017
# Hz S RI R 50
!Freq.(Hz) S11(Real) S11(Imag) S21(Real) S21(Imag) S12(Real) S12(Imag) S22(Real) S22(Imag)
100.0 0.9963570605321376 -0.05815177809213764 0.00364293946786255 0.05815177809213764 0.00364293946786255 0.05815177809213764 0.9963570605321376 -0.05815177809213764
104.57921513303334 0.9960269742548067 -0.06078397780397581 0.0039730257451933764 0.06078397780397581 0.0039730257451933764 0.06078397780397581 0.9960269742548067 -0.06078397780397581
109.3681223784127 0.9956672140731205 -0.06353328322174688 0.004332785926879438 0.06353328322174688 0.004332785926879438 0.06353328322174688 0.9956672140731205 -0.06353328322174688
114.3763239890794 0.9952751023368571 -0.0664046660771785 0.004724897663142724 0.0664046660771785 0.004724897663142724 0.0664046660771785 0.9952751023368571 -0.0664046660771785
119.61386192579457 0.9948477163946697 -0.06940327356644381 0.00515228360533022 0.06940327356644381 0.00515228360533022 0.06940327356644381 0.9948477163946697 -0.06940327356644381
125.09123799230618 0.9943818667237807 -0.07253442817147686 0.005618133276219241 0.07253442817147686 0.005618133276219241 0.07253442817147686 0.9943818667237807 -0.07253442817147686
130.8194348925486 0.9938740734406964 -0.07580362626885688 0.00612592655930363 0.07580362626885688 0.00612592655930363 0.07580362626885688 0.9938740734406964 -0.07580362626885688
136.8099382520969 0.9933205411296349 -0.07921653534289286 0.006679458870365072 0.07921653534289286 0.006679458870365072 0.07921653534289286 0.9933205411296349 -0.07921653534289286
143.0747596480305 0.9927171319269216 -0.08277898960013506 0.007282868073078571 0.08277898960013506 0.007282868073078571 0.08277898960013506 0.9927171319269216 -0.08277898960013506
149.6264606933842 0.9920593368022584 -0.08649698375989538 0.00794066319774159 0.08649698375989538 0.00794066319774159 0.08649698375989538 0.9920593368022584 -0.08649698375989538
156.47817822447783 0.9913422449823295 -0.09037666476907215 0.00865775501767058 0.09037666476907215 0.00865775501767058 0.09037666476907215 0.9913422449823295 -0.09037666476907215
163.643650641628 0.9905605114695546 -0.0944243211593762 0.009439488530445392 0.0944243211593762 0.009439488530445392 0.0944243211593762 0.9905605114695546 -0.0944243211593762
171.13724545605763 0.9897083226200515 -0.09864636973083313 0.010291677379948587 0.09864636973083313 0.010291677379948587 0.09864636973083313 0.9897083226200515 -0.09864636973083313
178.97398809823787 0.9887793597611008 -0.1030493392072622 0.011220640238899265 0.1030493392072622 0.011220640238899265 0.1030493392072622 0.9887793597611008 -0.1030493392072622
187.1695920454257 0.9877667608508908 -0.10763985046755864 0.012233239149109273 0.10763985046755864 0.012233239149109273 0.10763985046755864 0.9877667608508908 -0.10763985046755864
195.74049032880657 0.9866630802132635 -0.1124245929114701 0.013336919786736338 0.1124245929114701 0.013336919786736338 0.1124245929114701 0.9866630802132635 -0.1124245929114701
204.70386848341695 0.9854602464189186 -0.11741029647080375 0.014539753581081475 0.11741029647080375 0.014539753581081475 0.11741029647080375 0.9854602464189186 -0.11741029647080375
214.0776990069143 0.9841495184333509 -0.12260369872744692 0.015850481566649217 0.12260369872744692 0.015850481566649217 0.12260369872744692 0.9841495184333509 -0.12260369872744692
223.88077739628844 0.9827214402120985 -0.12801150654929327 0.01727855978790153 0.12801150654929327 0.01727855978790153 0.12801150654929327 0.9827214402120985 -0.12801150654929327
234.132759834772 0.9811657939970062 -0.13364035160542345 0.018834206002993806 0.13364035160542345 0.018834206002993806 0.13364035160542345 0.9811657939970062 -0.13364035160542345
244.85420260451448 0.9794715526546424 -0.13949673907427304 0.020528447345357664 0.13949673907427304 0.020528447345357664 0.13949673907427304 0.9794715526546424 -0.13949673907427304
256.06660330404856 0.9776268315011512 -0.14558698881496163 0.022373168498848954 0.14558698881496163 0.022373168498848954 0.14558698881496163 0.9776268315011512 -0.14558698881496163
267.792443953192 0.9756188401781264 -0.15191716823477658 0.02438115982187359 0.15191716823477658 0.02438115982187359 0.15191716823477658 0.9756188401781264 -0.15191716823477658
280.0552360718164 0.9734338352829329 -0.15849301605782307 0.02656616471706693 0.15849301605782307 0.02656616471706693 0.15849301605782307 0.9734338352829329 -0.15849301605782307
292.87956782286926 0.9710570746155047 -0.1653198561844605 0.02894292538449511 0.1653198561844605 0.02894292538449511 0.1653198561844605 0.9710570746155047 -0.1653198561844605
306.2911533141767 0.9684727740830363 -0.1724025008323661 0.03152722591696362 0.1724025008323661 0.03152722591696362 0.1724025008323661 0.9684727740830363 -0.1724025008323661
320.3168841578819 0.9656640685047616 -0.17974514217268658 0.03433593149523839 0.17974514217268658 0.03433593149523839 0.17974514217268658 0.9656640685047616 -0.17974514217268658
334.9848833909005 0.9626129777812754 -0.1873512317243037 0.03738702221872462 0.1873512317243037 0.03738702221872462 0.1873512317243037 0.9626129777812754 -0.1873512317243037
350.32456186451077 0.9593003801358911 -0.1952233468521875 0.04069961986410889 0.1952233468521875 0.04069961986410889 0.1952233468521875 0.9593003801358911 -0.1952233468521875
366.36667721614316 0.9557059943976277 -0.20336304383940912 0.04429400560237229 0.20336304383940912 0.04429400560237229 0.20336304383940912 0.9557059943976277 -0.20336304383940912
383.1433955416162 0.9518083735734969 -0.21177069717477742 0.04819162642650317 0.21177069717477742 0.04819162642650317 0.21177069717477742 0.9518083735734969 -0.21177069717477742
400.68835589147574 0.9475849122470308 -0.2204453249281479 0.05241508775296924 0.2204453249281479 0.05241508775296924 0.2204453249281479 0.9475849122470308 -0.2204453249281479
419.03673772076064 0.9430118706335251 -0.22938440038272714 0.0569881293664749 0.22938440038272714 0.0569881293664749 0.22938440038272714 0.9430118706335251 -0.22938440038272714
438.225331427439 0.9380644184107342 -0.23858365046801192 0.061935581589265806 0.23858365046801192 0.061935581589265806 0.23858365046801192 0.9380644184107342 -0.23858365046801192
458.2926121209498 0.932716701714103 -0.248036841998116 0.067283298285897 0.248036841998116 0.067283298285897 0.248036841998116 0.932716701714103 -0.248036841998116
479.2788167687661 0.9269419369217472 -0.2577355572772743 0.0730580630782527 0.2577355572772743 0.0730580630782527 0.2577355572772743 0.9269419369217472 -0.2577355572772743
501.22602487566456 0.9207125350358641 -0.2676689612948768 0.07928746496413588 0.2676689612948768 0.07928746496413588 0.2676689612948768 0.9207125350358641 -0.2676689612948768
524.1782428574726 0.9140002605690036 -0.2778235635015705 0.0859997394309964 0.2778235635015705 0.0859997394309964 0.2778235635015705 0.9140002605690036 -0.2778235635015705
548.1814922784702 0.9067764288357473 -0.28818297803686294 0.0932235711642527 0.28818297803686294 0.0932235711642527 0.28818297803686294 0.9067764288357473 -0.28818297803686294
573.2839021293739 0.8990121453979947 -0.2987276872626495 0.10098785460200534 0.2987276872626495 0.10098785460200534 0.2987276872626495 0.8990121453979947 -0.2987276872626495
599.5358053309263 0.8906785910759846 -0.3094348145337607 0.10932140892401544 0.3094348145337607 0.10932140892401544 0.3094348145337607 0.8906785910759846 -0.3094348145337607
626.9898396565933 0.8817473553746645 -0.3202779132833468 0.11825264462533551 0.3202779132833468 0.11825264462533551 0.3202779132833468 0.8817473553746645 -0.3202779132833468
655.7010532767296 0.8721908203418272 -0.3312267806822866 0.127809179658173 0.3312267806822866 0.127809179658173 0.3312267806822866 0.8721908203418272 -0.3312267806822866
685.7270151358366 0.8619825957277125 -0.34224730529713543 0.13801740427228765 0.34224730529713543 0.13801740427228765 0.34224730529713543 0.8619825957277125 -0.34224730529713543
717.1279303842347 0.8510980048182853 -0.3533013592522801 0.1489019951817147 0.3533013592522801 0.1489019951817147 0.3533013592522801 0.8510980048182853 -0.3533013592522801
749.9667610955984 0.8395146184400212 -0.36434674631216213 0.1604853815599788 0.36434674631216213 0.1604853815599788 0.36434674631216213 0.8395146184400212 -0.36434674631216213
784.3093525124082 0.8272128323746694 -0.3753372179334143 0.1727871676253305 0.3753372179334143 0.1727871676253305 0.3753372179334143 0.8272128323746694 -0.3753372179334143
820.2245650724522 0.8141764807958197 -0.38622256957326323 0.1858235192041803 0.38622256957326323 0.1858235192041803 0.38622256957326323 0.8141764807958197 -0.38622256957326323
857.7844124811068 0.8003934753969825 -0.39694882924755626 0.19960652460301748 0.39694882924755626 0.19960652460301748 0.39694882924755626 0.8003934753969825 -0.39694882924755626
897.0642061062428 0.7858564567169001 -0.407458549375219 0.21414354328309987 0.407458549375219 0.21414354328309987 0.407458549375219 0.7858564567169001 -0.407458549375219
938.1427059852851 0.7705634409230738 -0.4176912112021821 0.2294365590769262 0.4176912112021821 0.2294365590769262 0.4176912112021821 0.7705634409230738 -0.4176912112021821
981.102278747212 0.7545184421800984 -0.42758374846950614 0.24548155781990139 0.42758374846950614 0.24548155781990139 0.42758374846950614 0.7545184421800984 -0.42758374846950614
1026.0290627661395 0.7377320479433619 -0.4370711934251227 0.2622679520566381 0.4370711934251227 0.2622679520566381 0.4370711934251227 0.7377320479433619 -0.4370711934251227
1073.0131408776467 0.7202219223563903 -0.44608744378820325 0.27977807764360985 0.44608744378820325 0.27977807764360985 0.44608744378820325 0.7202219223563903 -0.44608744378820325
1122.1487210041523 0.702013211686904 -0.45456614395389355 0.297986788313096 0.45456614395389355 0.297986788313096 0.45456614395389355 0.702013211686904 -0.45456614395389355
1173.5343250515148 0.6831388257022397 -0.4624416677638557 0.3168611742977603 0.4624416677638557 0.3168611742977603 0.4624416677638557 0.6831388257022397 -0.4624416677638557
1227.2729864556143 0.6636395703114953 -0.4696501838553891 0.33636042968850455 0.4696501838553891 0.33636042968850455 0.4696501838553891 0.6636395703114953 -0.4696501838553891
1283.4724567750195 0.6435641098679993 -0.4761307783242291 0.35643589013200083 0.4761307783242291 0.35643589013200083 0.4761307783242291 0.6435641098679993 -0.4761307783242291
1342.245421743976 0.622968742300333 -0.48182660365381247 0.37703125769966706 0.48182660365381247 0.37703125769966706 0.48182660365381247 0.622968742300333 -0.48182660365381247
1403.7097272189235 0.6019169766516945 -0.48668601807844336 0.3980830233483055 0.48668601807844336 0.3980830233483055 0.48668601807844336 0.6019169766516945 -0.48668601807844336
1467.9886154715937 0.5804789104251536 -0.4906636762557392 0.4195210895748463 0.4906636762557392 0.4195210895748463 0.4906636762557392 0.5804789104251536 -0.4906636762557392
1535.2109723024755 0.5587304129639237 -0.49372153076139513 0.4412695870360762 0.49372153076139513 0.4412695870360762 0.49372153076139513 0.5587304129639237 -0.49372153076139513
1605.5115854701387 0.536752130404816 -0.4958297048065726 0.463247869595184 0.4958297048065726 0.463247869595184 0.4958297048065726 0.536752130404816 -0.4958297048065726
1679.0314149545911 0.5146283368885962 -0.4969671998681683 0.4853716631114038 0.4969671998681683 0.4853716631114038 0.4969671998681683 0.5146283368885962 -0.4969671998681683
1755.9178755965756 0.4924456650048748 -0.49712240756555537 0.5075543349951251 0.49712240756555537 0.5075543349951251 0.49712240756555537 0.4924456650048748 -0.49712240756555537
1836.3251326795319 0.47029175522624506 -0.496293402848798 0.529708244773755 0.496293402848798 0.529708244773755 0.496293402848798 0.47029175522624506 -0.496293402848798
1920.4144110468878 0.44825386877776074 -0.49448800491406597 0.5517461312222391 0.49448800491406597 0.5517461312222391 0.49448800491406597 0.44825386877776074 -0.49448800491406597
2008.3543183745 0.42641751058714683 -0.49172360259907755 0.5735824894128532 0.49172360259907755 0.5735824894128532 0.49172360259907755 0.42641751058714683 -0.49172360259907755
2100.321183246434 0.40486510847339796 -0.488026751599332 0.5951348915266021 0.488026751599332 0.5951348915266021 0.488026751599332 0.40486510847339796 -0.488026751599332
2196.4994087119585 0.3836747915969171 -0.4834325609227337 0.616325208403083 0.4834325609227337 0.616325208403083 0.4834325609227337 0.3836747915969171 -0.4834325609227337
2297.0818420326846 0.36291930568342184 -0.47798389485722365 0.6370806943165782 0.47798389485722365 0.6370806943165782 0.47798389485722365 0.36291930568342184 -0.47798389485722365
2402.270161361206 0.342665095114005 -0.4717304237799718 0.657334904885995 0.4717304237799718 0.657334904885995 0.4717304237799718 0.342665095114005 -0.4717304237799718
2512.2752801266033 0.3229715732535547 -0.4647275619840416 0.6770284267464454 0.4647275619840416 0.6770284267464454 0.4647275619840416 0.3229715732535547 -0.4647275619840416
2627.3177699376165 0.303890593049771 -0.4570353331458167 0.6961094069502292 0.4570353331458167 0.6961094069502292 0.4570353331458167 0.303890593049771 -0.4570353331458167
2747.6283028514745 0.2854661206543675 -0.4487172041237359 0.7145338793456324 0.4487172041237359 0.7145338793456324 0.4487172041237359 0.2854661206543675 -0.4487172041237359
2873.4481138951564 0.26773410620860544 -0.4398389256777634 0.7322658937913947 0.4398389256777634 0.7322658937913947 0.4398389256777634 0.26773410620860544 -0.4398389256777634
3005.0294847665045 0.2507225384899643 -0.43046741479198647 0.7492774615100356 0.43046741479198647 0.7492774615100356 0.43046741479198647 0.2507225384899643 -0.43046741479198647
3142.6362496850466 0.23445166417778593 -0.42066970803045817 0.7655483358222142 0.42066970803045817 0.7655483358222142 0.42066970803045817 0.23445166417778593 -0.42066970803045817
3286.544324406816 0.21893434824374186 -0.41051200926153825 0.7810656517562581 0.41051200926153825 0.7810656517562581 0.41051200926153825 0.21893434824374186 -0.41051200926153825
3437.0422594639017 0.2041765494350146 -0.4000588486414952 0.7958234505649854 0.4000588486414952 0.7958234505649854 0.4000588486414952 0.2041765494350146 -0.4000588486414952
3594.431818738024 0.19017788389038734 -0.3893723633949978 0.8098221161096125 0.3893723633949978 0.8098221161096125 0.3893723633949978 0.19017788389038734 -0.3893723633949978
3759.0285845282415 0.17693225040948077 -0.37851170502843334 0.8230677495905192 0.37851170502843334 0.8230677495905192 0.37851170502843334 0.17693225040948077 -0.37851170502843334
3931.162590326006 0.16442849251751007 -0.3675325724254191 0.8355715074824899 0.3675325724254191 0.8355715074824899 0.3675325724254191 0.16442849251751007 -0.3675325724254191
4111.17898256636 0.15265107493797747 -0.3564868659670826 0.8473489250620224 0.3564868659670826 0.8473489250620224 0.3564868659670826 0.15265107493797747 -0.3564868659670826
4299.438712682125 0.14158075511058318 -0.3454224544655246 0.8584192448894169 0.3454224544655246 0.8584192448894169 0.3454224544655246 0.14158075511058318 -0.3454224544655246
4496.31926084876 0.13119523370232003 -0.33438304429264415 0.86880476629768 0.33438304429264415 0.86880476629768 0.33438304429264415 0.13119523370232003 -0.33438304429264415
4702.215392871039 0.12146977142650772 -0.3234081385638076 0.8785302285734923 0.3234081385638076 0.8785302285734923 0.3234081385638076 0.12146977142650772 -0.3234081385638076
4917.539951729213 0.11237776272510823 -0.31253307349143306 0.8876222372748918 0.31253307349143306 0.8876222372748918 0.31253307349143306 0.11237776272510823 -0.31253307349143306
5142.724685371758 0.10389125985101091 -0.3017891189288743 0.896108740148989 0.3017891189288743 0.896108740148989 0.3017891189288743 0.10389125985101091 -0.3017891189288743
5378.221112414543 0.09598144352265783 -0.29120363054321063 0.904018556477342 0.29120363054321063 0.904018556477342 0.29120363054321063 0.09598144352265783 -0.29120363054321063
5624.501427482224 0.08861903856764786 -0.2808002418531647 0.9113809614323524 0.2808002418531647 0.9113809614323524 0.2808002418531647 0.08861903856764786 -0.2808002418531647
5882.059448007167 0.08177467481229526 -0.270599085423498 0.9182253251877049 0.270599085423498 0.9182253251877049 0.270599085423498 0.08177467481229526 -0.270599085423498
6151.41160438433 0.07541919492315181 -0.2606170337145739 0.9245808050768481 0.2606170337145739 0.9245808050768481 0.2606170337145739 0.07541919492315181 -0.2606170337145739
6433.097975467465 0.0695239119943128 -0.25086795135892653 0.9304760880056872 0.25086795135892653 0.9304760880056872 0.25086795135892653 0.0695239119943128 -0.25086795135892653
6727.683371482931 0.06406082044167605 -0.241362951908368 0.9359391795583237 0.241362951908368 0.9359391795583237 0.241362951908368 0.06406082044167605 -0.241362951908368
7035.758466532445 0.059002764258065776 -0.2321106533159756 0.9409972357419342 0.2321106533159756 0.9409972357419342 0.2321106533159756 0.059002764258065776 -0.2321106533159756
7357.940982955574 0.054323566947941444 -0.2231174275534069 0.9456764330520587 0.2231174275534069 0.9456764330520587 0.2231174275534069 0.054323566947941444 -0.2231174275534069
7694.876929926739 0.04999812754180576 -0.21438764079458916 0.9500018724581941 0.21438764079458916 0.9500018724581941 0.21438764079458916 0.04999812754180576 -0.21438764079458916
8047.241898770236 0.046002487028842375 -0.20592388151127708 0.9539975129711575 0.20592388151127708 0.9539975129711575 0.20592388151127708 0.046002487028842375 -0.20592388151127708
8415.742417590522 0.04231386937717575 -0.19772717462132014 0.9576861306228241 0.19772717462132014 0.9576861306228241 0.19772717462132014 0.04231386937717575 -0.19772717462132014
8801.117367933934 0.03891070106454252 -0.18979718050908406 0.9610892989354575 0.18979718050908406 0.9610892989354575 0.18979718050908406 0.03891070106454252 -0.18979718050908406
9204.139466322391 0.03577261274310145 -0.18213237830531556 0.9642273872568985 0.18213237830531556 0.9642273872568985 0.18213237830531556 0.03577261274310145 -0.18213237830531556
9625.61681362972 0.03288042633095399 -0.17473023327889312 0.9671195736690461 0.17473023327889312 0.9671195736690461 0.17473023327889312 0.03288042633095399 -0.17473023327889312
10066.394515407255 0.03021613047607864 -0.16758734856463606 0.9697838695239214 0.16758734856463606 0.9697838695239214 0.16758734856463606 0.03021613047607864 -0.16758734856463606
10527.356376407623 0.02776284698880401 -0.16069960173938166 0.972237153011196 0.16069960173938166 0.972237153011196 0.16069960173938166 0.02776284698880401 -0.16069960173938166
11009.426672704432 0.025504790496857728 -0.15406226697271658 0.9744952095031422 0.15406226697271658 0.9744952095031422 0.15406226697271658 0.025504790496857728 -0.15406226697271658
11513.572004961125 0.02342722325028628 -0.14767012362872178 0.9765727767497138 0.14767012362872178 0.9765727767497138 0.14767012362872178 0.02342722325028628 -0.14767012362872178
12040.803236564994 0.021516406698018735 -0.14151755229022972 0.9784835933019814 0.14151755229022972 0.9784835933019814 0.14151755229022972 0.021516406698018735 -0.14151755229022972
12592.177520512549 0.019759551177701274 -0.13559861922637234 0.980240448822299 0.13559861922637234 0.980240448822299 0.13559861922637234 0.019759551177701274 -0.13559861922637234
13168.800419110281 0.018144764808301607 -0.12990715033609385 0.9818552351916984 0.12990715033609385 0.9818552351916984 0.12990715033609385 0.018144764808301607 -0.12990715033609385
13771.82812074114 0.016661002452183743 -0.12443679558271528 0.9833389975478161 0.12443679558271528 0.9833389975478161 0.12443679558271528 0.016661002452183743 -0.12443679558271528
