!Murata Part Number: GRM21BR61C106KE15
!These Parameters are Measured in Series Mode Connection
!       o--ll--o
!Port1            Port2
!       o------o
!Operation Temp=25[degC], DC Bias Voltage=0[V]
!Freq. Start=100[Hz] Stop=6[GHz], 401[Steps]
!Data Generated on Mar 14, 2018
# Hz S RI R 50
!Freq.(Hz) S11(Real) S11(Imag) S21(Real) S21(Imag) S12(Real) S12(Imag) S22(Real) S22(Imag)
100.0 0.77824671802332 -0.40920776246209645 0.22175328197668007 0.40920776246209645 0.22175328197668007 0.40920776246209645 0.77824671802332 -0.40920776246209645
104.57921513303334 0.7627678962242628 -0.41918766062228635 0.23723210377573725 0.41918766062228635 0.23723210377573725 0.41918766062228635 0.7627678962242628 -0.41918766062228635
109.3681223784127 0.7465517918344267 -0.4288034680688578 0.25344820816557345 0.4288034680688578 0.25344820816557345 0.4288034680688578 0.7465517918344267 -0.4288034680688578
114.3763239890794 0.729612599814129 -0.4379906744304123 0.270387400185871 0.4379906744304123 0.270387400185871 0.4379906744304123 0.729612599814129 -0.4379906744304123
119.61386192579457 0.7119717038063035 -0.4466842422838386 0.28802829619369663 0.4466842422838386 0.28802829619369663 0.4466842422838386 0.7119717038063035 -0.4466842422838386
125.09123799230618 0.6936579691740293 -0.45481953940196623 0.3063420308259708 0.45481953940196623 0.3063420308259708 0.45481953940196623 0.6936579691740293 -0.45481953940196623
130.8194348925486 0.6747078956585097 -0.46233334999059317 0.3252921043414903 0.46233334999059317 0.3252921043414903 0.46233334999059317 0.6747078956585097 -0.46233334999059317
136.8099382520969 0.6551656098815715 -0.4691649409209015 0.34483439011842854 0.4691649409209015 0.34483439011842854 0.4691649409209015 0.6551656098815715 -0.4691649409209015
143.0747596480305 0.6350826825528387 -0.4752571538300329 0.3649173174471613 0.4752571538300329 0.3649173174471613 0.4752571538300329 0.6350826825528387 -0.4752571538300329
149.6264606933842 0.6145177612976509 -0.4805574898386989 0.385482238702349 0.4805574898386989 0.385482238702349 0.4805574898386989 0.6145177612976509 -0.4805574898386989
156.47817822447783 0.5935360172489362 -0.48501915094292414 0.4064639827510638 0.48501915094292414 0.4064639827510638 0.48501915094292414 0.5935360172489362 -0.48501915094292414
163.643650641628 0.5722084115602218 -0.4886020012303684 0.42779158843977805 0.4886020012303684 0.42779158843977805 0.4886020012303684 0.5722084115602218 -0.4886020012303684
171.13724545605763 0.5506107963000422 -0.4912734121864136 0.4493892036999578 0.4912734121864136 0.4493892036999578 0.4912734121864136 0.5506107963000422 -0.4912734121864136
178.97398809823787 0.5288228722090632 -0.49300895957221147 0.47117712779093684 0.49300895957221147 0.47117712779093684 0.49300895957221147 0.5288228722090632 -0.49300895957221147
187.1695920454257 0.5069270329495659 -0.4937929445782836 0.49307296705043396 0.4937929445782836 0.49307296705043396 0.4937929445782836 0.5069270329495659 -0.4937929445782836
195.74049032880657 0.4850071312034148 -0.49361871890334147 0.514992868796585 0.49361871890334147 0.514992868796585 0.49361871890334147 0.4850071312034148 -0.49361871890334147
204.70386848341695 0.46314720583231556 -0.4924888016370077 0.5368527941676845 0.4924888016370077 0.5368527941676845 0.4924888016370077 0.46314720583231556 -0.4924888016370077
214.0776990069143 0.44143021100856955 -0.4904147847742481 0.5585697889914306 0.4904147847742481 0.5585697889914306 0.4904147847742481 0.44143021100856955 -0.4904147847742481
223.88077739628844 0.4199367876466509 -0.4874170332319093 0.5800632123533491 0.4874170332319093 0.5800632123533491 0.4874170332319093 0.4199367876466509 -0.4874170332319093
234.132759834772 0.3987441147021263 -0.4835241937486478 0.6012558852978737 0.4835241937486478 0.6012558852978737 0.4835241937486478 0.3987441147021263 -0.4835241937486478
244.85420260451448 0.37792487322242 -0.4787725344690982 0.62207512677758 0.4787725344690982 0.62207512677758 0.4787725344690982 0.37792487322242 -0.4787725344690982
256.06660330404856 0.3575463498470876 -0.47320514290086974 0.6424536501529124 0.47320514290086974 0.6424536501529124 0.47320514290086974 0.3575463498470876 -0.47320514290086974
267.792443953192 0.3376696992719877 -0.4668710140035135 0.6623303007280124 0.4668710140035135 0.6623303007280124 0.4668710140035135 0.3376696992719877 -0.4668710140035135
280.0552360718164 0.31834937755733994 -0.45982406230668005 0.6816506224426601 0.45982406230668005 0.6816506224426601 0.45982406230668005 0.31834937755733994 -0.45982406230668005
292.87956782286926 0.29963275060016054 -0.45212209220856664 0.7003672493998395 0.45212209220856664 0.7003672493998395 0.45212209220856664 0.29963275060016054 -0.45212209220856664
306.2911533141767 0.2815598750663831 -0.4438257591630838 0.7184401249336169 0.4438257591630838 0.7184401249336169 0.4438257591630838 0.2815598750663831 -0.4438257591630838
320.3168841578819 0.2641634429467334 -0.43499755161552983 0.7358365570532667 0.43499755161552983 0.7358365570532667 0.43499755161552983 0.2641634429467334 -0.43499755161552983
334.9848833909005 0.24746887590589314 -0.42570081964357487 0.7525311240941068 0.42570081964357487 0.7525311240941068 0.42570081964357487 0.24746887590589314 -0.42570081964357487
350.32456186451077 0.23149455186103612 -0.4159988716747444 0.7685054481389638 0.4159988716747444 0.7685054481389638 0.4159988716747444 0.23149455186103612 -0.4159988716747444
366.36667721614316 0.2162521437703867 -0.40595415574000226 0.7837478562296133 0.40595415574000226 0.7837478562296133 0.40595415574000226 0.2162521437703867 -0.40595415574000226
383.1433955416162 0.2017470493640063 -0.39562753680072704 0.7982529506359937 0.39562753680072704 0.7982529506359937 0.39562753680072704 0.2017470493640063 -0.39562753680072704
400.68835589147574 0.18797889037233603 -0.38507767701089335 0.812021109627664 0.38507767701089335 0.812021109627664 0.38507767701089335 0.18797889037233603 -0.38507767701089335
419.03673772076064 0.17494206052764766 -0.37436052154015803 0.8250579394723524 0.37436052154015803 0.8250579394723524 0.37436052154015803 0.17494206052764766 -0.37436052154015803
438.225331427439 0.16262630303571557 -0.3635288889150292 0.8373736969642845 0.3635288889150292 0.8373736969642845 0.3635288889150292 0.16262630303571557 -0.3635288889150292
458.2926121209498 0.15101730014515657 -0.3526321618039004 0.8489826998548434 0.3526321618039004 0.8489826998548434 0.3526321618039004 0.15101730014515657 -0.3526321618039004
479.2788167687661 0.14009725969794384 -0.3417160717976403 0.859902740302056 0.3417160717976403 0.859902740302056 0.3417160717976403 0.14009725969794384 -0.3417160717976403
501.22602487566456 0.12984548596545148 -0.33082257000172044 0.8701545140345485 0.33082257000172044 0.8701545140345485 0.33082257000172044 0.12984548596545148 -0.33082257000172044
524.1782428574726 0.12023892452466903 -0.31998977411111024 0.879761075475331 0.31998977411111024 0.879761075475331 0.31998977411111024 0.12023892452466903 -0.31998977411111024
548.1814922784702 0.1112526733009549 -0.30925198201891324 0.8887473266990452 0.30925198201891324 0.8887473266990452 0.30925198201891324 0.1112526733009549 -0.30925198201891324
573.2839021293739 0.10286045411572707 -0.298639741836667 0.897139545884273 0.298639741836667 0.897139545884273 0.298639741836667 0.10286045411572707 -0.298639741836667
599.5358053309263 0.09503504107350724 -0.28817996839694504 0.9049649589264926 0.28817996839694504 0.9049649589264926 0.28817996839694504 0.09503504107350724 -0.28817996839694504
626.9898396565933 0.08774864386830063 -0.2778960967869 0.9122513561316994 0.2778960967869 0.9122513561316994 0.2778960967869 0.08774864386830063 -0.2778960967869
655.7010532767296 0.08097324556850154 -0.2678082641489807 0.9190267544314985 0.2678082641489807 0.9190267544314985 0.2678082641489807 0.08097324556850154 -0.2678082641489807
685.7270151358366 0.07468089565147057 -0.2579335118139031 0.9253191043485294 0.2579335118139031 0.9253191043485294 0.2579335118139031 0.07468089565147057 -0.2579335118139031
717.1279303842347 0.0688439600143018 -0.24828600074161922 0.9311560399856983 0.24828600074161922 0.9311560399856983 0.24828600074161922 0.0688439600143018 -0.24828600074161922
749.9667610955984 0.06343533040519578 -0.23887723418877196 0.9365646695948042 0.23887723418877196 0.9365646695948042 0.23887723418877196 0.06343533040519578 -0.23887723418877196
784.3093525124082 0.05842859622491297 -0.229716282455923 0.9415714037750869 0.229716282455923 0.9415714037750869 0.229716282455923 0.05842859622491297 -0.229716282455923
820.2245650724522 0.05379818196779359 -0.2208100054640034 0.9462018180322065 0.2208100054640034 0.9462018180322065 0.2208100054640034 0.05379818196779359 -0.2208100054640034
857.7844124811068 0.049519453735675296 -0.21216326974477567 0.9504805462643248 0.21216326974477567 0.9504805462643248 0.21216326974477567 0.049519453735675296 -0.21216326974477567
897.0642061062428 0.045568798294162965 -0.20377915718993864 0.9544312017058368 0.20377915718993864 0.9544312017058368 0.20377915718993864 0.045568798294162965 -0.20377915718993864
938.1427059852851 0.041923678075904955 -0.1956591635795035 0.9580763219240951 0.1956591635795035 0.9580763219240951 0.1956591635795035 0.041923678075904955 -0.1956591635795035
981.102278747212 0.038562665394191335 -0.18780338549905973 0.9614373346058086 0.18780338549905973 0.9614373346058086 0.18780338549905973 0.038562665394191335 -0.18780338549905973
1026.0290627661395 0.035465458933799175 -0.18021069475838178 0.9645345410662007 0.18021069475838178 0.9645345410662007 0.18021069475838178 0.035465458933799175 -0.18021069475838178
1073.0131408776467 0.03261288535294524 -0.17287889984434215 0.9673871146470548 0.17287889984434215 0.9673871146470548 0.17287889984434215 0.03261288535294524 -0.17287889984434215
1122.1487210041523 0.02998688857574039 -0.1658048942851892 0.9700131114242597 0.1658048942851892 0.9700131114242597 0.1658048942851892 0.02998688857574039 -0.1658048942851892
1173.5343250515148 0.02757050909098106 -0.15898479207808383 0.9724294909090189 0.15898479207808383 0.9724294909090189 0.15898479207808383 0.02757050909098106 -0.15898479207808383
1227.2729864556143 0.025347855310077074 -0.1524140505452 0.9746521446899229 0.1524140505452 0.9746521446899229 0.1524140505452 0.025347855310077074 -0.1524140505452
1283.4724567750195 0.023304068781614645 -0.14608758114362694 0.9766959312183854 0.14608758114362694 0.9766959312183854 0.14608758114362694 0.023304068781614645 -0.14608758114362694
1342.245421743976 0.02142528481767588 -0.13999984886854466 0.9785747151823241 0.13999984886854466 0.9785747151823241 0.13999984886854466 0.02142528481767588 -0.13999984886854466
1403.7097272189235 0.019698589861053443 -0.13414496096492953 0.9803014101389467 0.13414496096492953 0.9803014101389467 0.13414496096492953 0.019698589861053443 -0.13414496096492953
1467.9886154715937 0.018111976715037323 -0.12851674570707142 0.9818880232849627 0.12851674570707142 0.9818880232849627 0.12851674570707142 0.018111976715037323 -0.12851674570707142
1535.2109723024755 0.016654298569556362 -0.1231088220233662 0.9833457014304439 0.1231088220233662 0.9833457014304439 0.1231088220233662 0.016654298569556362 -0.1231088220233662
1605.5115854701387 0.015315222589390016 -0.11791466074141503 0.9846847774106098 0.11791466074141503 0.9846847774106098 0.11791466074141503 0.015315222589390016 -0.11791466074141503
1679.0314149545911 0.014085183681606439 -0.1129276382099072 0.9859148163183935 0.1129276382099072 0.9859148163183935 0.1129276382099072 0.014085183681606439 -0.1129276382099072
1755.9178755965756 0.01295533892962366 -0.10814108302294177 0.9870446610703765 0.10814108302294177 0.9870446610703765 0.10814108302294177 0.01295533892962366 -0.10814108302294177
1836.3251326795319 0.011917523069370084 -0.10354831653261351 0.98808247693063 0.10354831653261351 0.98808247693063 0.10354831653261351 0.011917523069370084 -0.10354831653261351
1920.4144110468878 0.010964205287830374 -0.09914268778962497 0.9890357947121697 0.09914268778962497 0.9890357947121697 0.09914268778962497 0.010964205287830374 -0.09914268778962497
2008.3543183745 0.01008844754460667 -0.09491760350173509 0.9899115524553934 0.09491760350173509 0.9899115524553934 0.09491760350173509 0.01008844754460667 -0.09491760350173509
2100.321183246434 0.009283864551760772 -0.09086655354803384 0.9907161354482392 0.09086655354803384 0.9907161354482392 0.09086655354803384 0.009283864551760772 -0.09086655354803384
2196.4994087119585 0.008544585494847752 -0.08698313253506444 0.9914554145051523 0.08698313253506444 0.9914554145051523 0.08698313253506444 0.008544585494847752 -0.08698313253506444
2297.0818420326846 0.00786521753738312 -0.08326105783018808 0.9921347824626171 0.08326105783018808 0.9921347824626171 0.08326105783018808 0.00786521753738312 -0.08326105783018808
2402.270161361206 0.0072408111206306 -0.07969418445957119 0.9927591888793695 0.07969418445957119 0.9927591888793695 0.07969418445957119 0.0072408111206306 -0.07969418445957119
2512.2752801266033 0.006666827049120571 -0.07627651721380725 0.9933331729508796 0.07627651721380725 0.9933331729508796 0.07627651721380725 0.006666827049120571 -0.07627651721380725
2627.3177699376165 0.006139105338220078 -0.07300222026427984 0.9938608946617801 0.07300222026427984 0.9938608946617801 0.07300222026427984 0.006139105338220078 -0.07300222026427984
2747.6283028514745 0.005653835791841252 -0.06986562455846741 0.9943461642081588 0.06986562455846741 0.9943461642081588 0.06986562455846741 0.005653835791841252 -0.06986562455846741
2873.4481138951564 0.005207530274463439 -0.06686123323275465 0.9947924697255366 0.06686123323275465 0.9947924697255366 0.06686123323275465 0.005207530274463439 -0.06686123323275465
3005.0294847665045 0.004796996640571842 -0.06398372525690452 0.9952030033594279 0.06398372525690452 0.9952030033594279 0.06398372525690452 0.004796996640571842 -0.06398372525690452
3142.6362496850466 0.004419314285019086 -0.06122795750483986 0.9955806857149808 0.06122795750483986 0.9955806857149808 0.06122795750483986 0.004419314285019086 -0.06122795750483986
3286.544324406816 0.004071811278519365 -0.05858896543118595 0.9959281887214808 0.05858896543118595 0.9959281887214808 0.05858896543118595 0.004071811278519365 -0.05858896543118595
3437.0422594639017 0.0037520430525636553 -0.05606196252133894 0.9962479569474363 0.05606196252133894 0.9962479569474363 0.05606196252133894 0.0037520430525636553 -0.05606196252133894
3594.431818738024 0.003457772596869926 -0.05364233867371449 0.99654222740313 0.05364233867371449 0.99654222740313 0.05364233867371449 0.003457772596869926 -0.05364233867371449
3759.0285845282415 0.0031869521297406894 -0.051325657665315806 0.9968130478702593 0.051325657665315806 0.9968130478702593 0.051325657665315806 0.0031869521297406894 -0.051325657665315806
3931.162590326006 0.0029377061973821276 -0.04910765384491526 0.9970622938026176 0.04910765384491526 0.9970622938026176 0.04910765384491526 0.0029377061973821276 -0.04910765384491526
4111.17898256636 0.0027083161525964655 -0.04698422819116182 0.9972916838474034 0.04698422819116182 0.9972916838474034 0.04698422819116182 0.0027083161525964655 -0.04698422819116182
4299.438712682125 0.0024972059567436766 -0.044951443865212555 0.9975027940432563 0.044951443865212555 0.9975027940432563 0.044951443865212555 0.0024972059567436766 -0.044951443865212555
4496.31926084876 0.002302929242046832 -0.04300552137865545 0.997697070757953 0.04300552137865545 0.997697070757953 0.04300552137865545 0.002302929242046832 -0.04300552137865545
4702.215392871039 0.0021241575647907743 -0.041142833487419844 0.9978758424352091 0.041142833487419844 0.9978758424352091 0.041142833487419844 0.0021241575647907743 -0.041142833487419844
4917.539951729213 0.001959669774294347 -0.039359899911132416 0.9980403302257055 0.039359899911132416 0.9980403302257055 0.039359899911132416 0.001959669774294347 -0.039359899911132416
5142.724685371758 0.0018083424181787754 -0.03765338196523772 0.9981916575818213 0.03765338196523772 0.9981916575818213 0.03765338196523772 0.0018083424181787754 -0.03765338196523772
5378.221112414543 0.001669141101721436 -0.03602007718053489 0.9983308588982786 0.03602007718053489 0.9983308588982786 0.03602007718053489 0.001669141101721436 -0.03602007718053489
5624.501427482224 0.001541112718129589 -0.03445691397203028 0.9984588872818704 0.03445691397203028 0.9984588872818704 0.03445691397203028 0.001541112718129589 -0.03445691397203028
5882.059448007167 0.0014233784673917266 -0.032960946406604796 0.9985766215326082 0.032960946406604796 0.9985766215326082 0.032960946406604796 0.0014233784673917266 -0.032960946406604796
6151.41160438433 0.0013151275838318732 -0.031529349107344194 0.9986848724161682 0.031529349107344194 0.9986848724161682 0.031529349107344194 0.0013151275838318732 -0.031529349107344194
6433.097975467465 0.0012156116963697782 -0.030159412321798508 0.9987843883036301 0.030159412321798508 0.9987843883036301 0.030159412321798508 0.0012156116963697782 -0.030159412321798508
6727.683371482931 0.0011241397504788558 -0.02884853717214829 0.9988758602495212 0.02884853717214829 0.9988758602495212 0.02884853717214829 0.0011241397504788558 -0.02884853717214829
7035.758466532445 0.0010400734266070137 -0.027594231097384 0.9989599265733929 0.027594231097384 0.9989599265733929 0.027594231097384 0.0010400734266070137 -0.027594231097384
7357.940982955574 9.628229960594018E-4 -0.026394103491182798 0.9990371770039407 0.026394103491182798 0.9990371770039407 0.026394103491182798 9.628229960594018E-4 -0.026394103491182798
7694.876929926739 8.918435617403809E-4 -0.025245861534146364 0.9991081564382596 0.025245861534146364 0.9991081564382596 0.025245861534146364 8.918435617403809E-4 -0.025245861534146364
8047.241898770236 8.266316374619948E-4 -0.024147306215335892 0.9991733683625382 0.024147306215335892 0.9991733683625382 0.024147306215335892 8.266316374619948E-4 -0.024147306215335892
8415.742417590522 7.667220255477584E-4 -0.023096328535457913 0.9992332779744524 0.023096328535457913 0.9992332779744524 0.023096328535457913 7.667220255477584E-4 -0.023096328535457913
8801.117367933934 7.116849580475963E-4 -0.022090905882444573 0.9992883150419523 0.022090905882444573 0.9992883150419523 0.022090905882444573 7.116849580475963E-4 -0.022090905882444573
9204.139466322391 6.611234719377889E-4 -0.02112909856935806 0.9993388765280621 0.02112909856935806 0.9993388765280621 0.02112909856935806 6.611234719377889E-4 -0.02112909856935806
9625.61681362972 6.146709931589302E-4 -0.020209046524357493 0.9993853290068412 0.020209046524357493 0.9993853290068412 0.020209046524357493 6.146709931589302E-4 -0.020209046524357493
10066.394515407255 5.719891082324214E-4 -0.01932896612274206 0.9994280108917676 0.01932896612274206 0.9994280108917676 0.01932896612274206 5.719891082324214E-4 -0.01932896612274206
10527.356376407623 5.327655055067371E-4 -0.018487147151685014 0.9994672344944933 0.018487147151685014 0.9994672344944933 0.018487147151685014 5.327655055067371E-4 -0.018487147151685014
11009.426672704432 4.967120708535597E-4 -0.017681949899087564 0.9995032879291463 0.017681949899087564 0.9995032879291463 0.017681949899087564 4.967120708535597E-4 -0.017681949899087564
11513.572004961125 4.6356312490768414E-4 -0.01691180235891065 0.9995364368750924 0.01691180235891065 0.9995364368750924 0.01691180235891065 4.6356312490768414E-4 -0.01691180235891065
12040.803236564994 4.330737907768397E-4 -0.01617519754631504 0.9995669262092233 0.01617519754631504 0.9995669262092233 0.01617519754631504 4.330737907768397E-4 -0.01617519754631504
12592.177520512549 4.0501848259330813E-4 -0.015470690916898634 0.9995949815174067 0.015470690916898634 0.9995949815174067 0.015470690916898634 4.0501848259330813E-4 -0.015470690916898634
13168.800419110281 3.791895063922227E-4 -0.014796897885222265 0.9996208104936078 0.014796897885222265 0.9996208104936078 0.014796897885222265 3.791895063922227E-4 -0.014796897885222265
