!Murata Part Number: GRM31CR60J476KE19
!These Parameters are Measured in Series Mode Connection
!       o--ll--o
!Port1            Port2
!       o------o
!Operation Temp=25[degC], DC Bias Voltage=0[V]
!Freq. Start=100[Hz] Stop=6[GHz], 401[Steps]
!Data Generated on Jan 10, 2017
# Hz S RI R 50
!Freq.(Hz) S11(Real) S11(Imag) S21(Real) S21(Imag) S12(Real) S12(Imag) S22(Real) S22(Imag)
100.0 0.168147754353914 -0.36833334458641137 0.8318522456460862 0.36833334458641137 0.8318522456460862 0.36833334458641137 0.168147754353914 -0.36833334458641137
104.57921513303334 0.1562462860307611 -0.35741884861030826 0.8437537139692388 0.35741884861030826 0.8437537139692388 0.35741884861030826 0.1562462860307611 -0.35741884861030826
109.3681223784127 0.14504848859206268 -0.34647021877700057 0.8549515114079375 0.34647021877700057 0.8549515114079375 0.34647021877700057 0.14504848859206268 -0.34647021877700057
114.3763239890794 0.13453370074862286 -0.33553194481794857 0.8654662992513772 0.33553194481794857 0.8654662992513772 0.33553194481794857 0.13453370074862286 -0.33553194481794857
119.61386192579457 0.12467859830708358 -0.32464443932311443 0.8753214016929163 0.32464443932311443 0.8753214016929163 0.32464443932311443 0.12467859830708358 -0.32464443932311443
125.09123799230618 0.11545777077959508 -0.31384403318739895 0.884542229220405 0.31384403318739895 0.884542229220405 0.31384403318739895 0.11545777077959508 -0.31384403318739895
130.8194348925486 0.10684425394674658 -0.3031630395903753 0.8931557460532537 0.3031630395903753 0.8931557460532537 0.3031630395903753 0.10684425394674658 -0.3031630395903753
136.8099382520969 0.09881001330196407 -0.29262987428977644 0.901189986698036 0.29262987428977644 0.901189986698036 0.29262987428977644 0.09881001330196407 -0.29262987428977644
143.0747596480305 0.09132637566257049 -0.2822692205743683 0.9086736243374297 0.2822692205743683 0.9086736243374297 0.2822692205743683 0.09132637566257049 -0.2822692205743683
149.6264606933842 0.0843644082055827 -0.2721022281010756 0.9156355917944173 0.2721022281010756 0.9156355917944173 0.2721022281010756 0.0843644082055827 -0.2721022281010756
156.47817822447783 0.07789524577287651 -0.2621467359225277 0.9221047542271233 0.2621467359225277 0.9221047542271233 0.2621467359225277 0.07789524577287651 -0.2621467359225277
163.643650641628 0.07189036851013711 -0.25241751119930084 0.9281096314898627 0.25241751119930084 0.9281096314898627 0.25241751119930084 0.07189036851013711 -0.25241751119930084
171.13724545605763 0.06632183279135159 -0.24292649630921764 0.9336781672086484 0.24292649630921764 0.9336781672086484 0.24292649630921764 0.06632183279135159 -0.24292649630921764
178.97398809823787 0.06116245897845899 -0.23368305825549077 0.938837541021541 0.23368305825549077 0.938837541021541 0.23368305825549077 0.06116245897845899 -0.23368305825549077
187.1695920454257 0.056385979920811534 -0.22469423539455738 0.9436140200791885 0.22469423539455738 0.9436140200791885 0.22469423539455738 0.056385979920811534 -0.22469423539455738
195.74049032880657 0.05196715425781679 -0.2159649775261402 0.9480328457421832 0.2159649775261402 0.9480328457421832 0.2159649775261402 0.05196715425781679 -0.2159649775261402
204.70386848341695 0.04788184859416411 -0.20749837629769302 0.9521181514058357 0.20749837629769302 0.9521181514058357 0.20749837629769302 0.04788184859416411 -0.20749837629769302
214.0776990069143 0.04410709250935338 -0.19929588366787876 0.9558929074906467 0.19929588366787876 0.9558929074906467 0.19929588366787876 0.04410709250935338 -0.19929588366787876
223.88077739628844 0.04062111017517506 -0.19135751685121422 0.9593788898248252 0.19135751685121422 0.9593788898248252 0.19135751685121422 0.04062111017517506 -0.19135751685121422
234.132759834772 0.03740333211368859 -0.18368204873557198 0.9625966678863115 0.18368204873557198 0.9625966678863115 0.18368204873557198 0.03740333211368859 -0.18368204873557198
244.85420260451448 0.03443439035561911 -0.17626718323589055 0.9655656096443811 0.17626718323589055 0.9655656096443811 0.17626718323589055 0.03443439035561911 -0.17626718323589055
256.06660330404856 0.0316960999711034 -0.16910971543263562 0.9683039000288965 0.16910971543263562 0.9683039000288965 0.16910971543263562 0.0316960999711034 -0.16910971543263562
267.792443953192 0.029171429652939642 -0.1622056766539053 0.9708285703470602 0.1622056766539053 0.9708285703470602 0.1622056766539053 0.029171429652939642 -0.1622056766539053
280.0552360718164 0.02684446374472878 -0.15555046490641017 0.9731555362552714 0.15555046490641017 0.9731555362552714 0.15555046490641017 0.02684446374472878 -0.15555046490641017
292.87956782286926 0.02470035782752981 -0.14913896125256954 0.97529964217247 0.14913896125256954 0.97529964217247 0.14913896125256954 0.02470035782752981 -0.14913896125256954
306.2911533141767 0.022725289711858224 -0.14296563287675862 0.977274710288142 0.14296563287675862 0.977274710288142 0.14296563287675862 0.022725289711858224 -0.14296563287675862
320.3168841578819 0.020906407428779885 -0.13702462368998614 0.9790935925712202 0.13702462368998614 0.9790935925712202 0.13702462368998614 0.020906407428779885 -0.13702462368998614
334.9848833909005 0.01923177557558314 -0.13130983339436206 0.980768224424417 0.13130983339436206 0.980768224424417 0.13130983339436206 0.01923177557558314 -0.13130983339436206
350.32456186451077 0.017690321148887536 -0.12581498597096633 0.9823096788511124 0.12581498597096633 0.9823096788511124 0.12581498597096633 0.017690321148887536 -0.12581498597096633
366.36667721614316 0.01627177979190786 -0.1205336885708835 0.9837282202080919 0.1205336885708835 0.9837282202080919 0.1205336885708835 0.01627177979190786 -0.1205336885708835
383.1433955416162 0.01496664319382125 -0.11545948178253657 0.9850333568061789 0.11545948178253657 0.9850333568061789 0.11545948178253657 0.01496664319382125 -0.11545948178253657
400.68835589147574 0.013766108208685894 -0.11058588222229081 0.986233891791314 0.11058588222229081 0.986233891791314 0.11058588222229081 0.013766108208685894 -0.11058588222229081
419.03673772076064 0.012662028109911983 -0.10590641835285189 0.987337971890088 0.10590641835285189 0.987337971890088 0.10590641835285189 0.012662028109911983 -0.10590641835285189
438.225331427439 0.011646866264411564 -0.10141466037861933 0.9883531337355883 0.10141466037861933 0.9883531337355883 0.10141466037861933 0.011646866264411564 -0.10141466037861933
458.2926121209498 0.010713652398371826 -0.09710424500226998 0.9892863476016284 0.09710424500226998 0.9892863476016284 0.09710424500226998 0.010713652398371826 -0.09710424500226998
479.2788167687661 0.009855941533744597 -0.0929688957557819 0.9901440584662554 0.0929688957557819 0.9901440584662554 0.0929688957557819 0.009855941533744597 -0.0929688957557819
501.22602487566456 0.009067775600149998 -0.08900243954504905 0.9909322243998501 0.08900243954504905 0.9909322243998501 0.08900243954504905 0.009067775600149998 -0.08900243954504905
524.1782428574726 0.00834364766959864 -0.08519881997300548 0.9916563523304012 0.08519881997300548 0.9916563523304012 0.08519881997300548 0.00834364766959864 -0.08519881997300548
548.1814922784702 0.007678468719504388 -0.08155210793421626 0.9923215312804954 0.08155210793421626 0.9923215312804954 0.08155210793421626 0.007678468719504388 -0.08155210793421626
573.2839021293739 0.007067536800868988 -0.0780565099061023 0.9929324631991308 0.0780565099061023 0.9929324631991308 0.0780565099061023 0.007067536800868988 -0.0780565099061023
599.5358053309263 0.006506508471114082 -0.07470637429973744 0.993493491528886 0.07470637429973744 0.993493491528886 0.07470637429973744 0.006506508471114082 -0.07470637429973744
626.9898396565933 0.005991372342650123 -0.0714961961773563 0.9940086276573498 0.0714961961773563 0.9940086276573498 0.0714961961773563 0.005991372342650123 -0.0714961961773563
655.7010532767296 0.005518424596839781 -0.06842062059473698 0.9944815754031603 0.06842062059473698 0.9944815754031603 0.06842062059473698 0.005518424596839781 -0.06842062059473698
685.7270151358366 0.005084246316662078 -0.06547444478448064 0.9949157536833378 0.06547444478448064 0.9949157536833378 0.06547444478448064 0.005084246316662078 -0.06547444478448064
717.1279303842347 0.004685682498481968 -0.06265261936059686 0.9953143175015179 0.06265261936059686 0.9953143175015179 0.06265261936059686 0.004685682498481968 -0.06265261936059686
749.9667610955984 0.004319822612522566 -0.059950248695194885 0.9956801773874774 0.059950248695194885 0.9956801773874774 0.059950248695194885 0.004319822612522566 -0.059950248695194885
784.3093525124082 0.00398398259184398 -0.05736259059382099 0.9960160174081559 0.05736259059382099 0.9960160174081559 0.05736259059382099 0.00398398259184398 -0.05736259059382099
820.2245650724522 0.0036756881400349935 -0.05488505537634205 0.996324311859965 0.05488505537634205 0.996324311859965 0.05488505537634205 0.0036756881400349935 -0.05488505537634205
857.7844124811068 0.0033926592578358977 -0.05251320445452077 0.9966073407421643 0.05251320445452077 0.9966073407421643 0.05251320445452077 0.0033926592578358977 -0.05251320445452077
897.0642061062428 0.0031327958981449276 -0.05024274848484996 0.9968672041018551 0.05024274848484996 0.9968672041018551 0.05024274848484996 0.0031327958981449276 -0.05024274848484996
938.1427059852851 0.002894164667090827 -0.04806954516516784 0.9971058353329089 0.04806954516516784 0.9971058353329089 0.04806954516516784 0.002894164667090827 -0.04806954516516784
981.102278747212 0.0026749864959795433 -0.04598959673547734 0.9973250135040204 0.04598959673547734 0.9973250135040204 0.04598959673547734 0.0026749864959795433 -0.04598959673547734
1026.0290627661395 0.0024736252149401582 -0.04399904723675076 0.99752637478506 0.04399904723675076 0.99752637478506 0.04399904723675076 0.0024736252149401582 -0.04399904723675076
1073.0131408776467 0.002288576964068756 -0.042094179575887514 0.9977114230359313 0.042094179575887514 0.9977114230359313 0.042094179575887514 0.002288576964068756 -0.042094179575887514
1122.1487210041523 0.002118460381914361 -0.04027141244006464 0.9978815396180856 0.04027141244006464 0.9978815396180856 0.04027141244006464 0.002118460381914361 -0.04027141244006464
1173.5343250515148 0.0019620075144175767 -0.03852729709919875 0.9980379924855822 0.03852729709919875 0.9980379924855822 0.03852729709919875 0.0019620075144175767 -0.03852729709919875
1227.2729864556143 0.001818055390072281 -0.03685851413091311 0.9981819446099277 0.03685851413091311 0.9981819446099277 0.03685851413091311 0.001818055390072281 -0.03685851413091311
1283.4724567750195 0.001685538209318873 -0.03526187009811813 0.9983144617906812 0.03526187009811813 0.9983144617906812 0.03526187009811813 0.001685538209318873 -0.03526187009811813
1342.245421743976 0.0015634800981857717 -0.03373429420497891 0.9984365199018144 0.03373429420497891 0.9984365199018144 0.03373429420497891 0.0015634800981857717 -0.03373429420497891
1403.7097272189235 0.0014509883781623693 -0.03227283495261428 0.9985490116218375 0.03227283495261428 0.9985490116218375 0.03227283495261428 0.0014509883781623693 -0.03227283495261428
1467.9886154715937 0.001347247306388968 -0.030874656811366964 0.998652752693611 0.030874656811366964 0.998652752693611 0.030874656811366964 0.001347247306388968 -0.030874656811366964
1535.2109723024755 0.0012515122426427893 -0.029537036921966457 0.9987484877573573 0.029537036921966457 0.9987484877573573 0.029537036921966457 0.0012515122426427893 -0.029537036921966457
1605.5115854701387 0.001163104202406199 -0.028257361833487468 0.9988368957975937 0.028257361833487468 0.9988368957975937 0.028257361833487468 0.001163104202406199 -0.028257361833487468
1679.0314149545911 0.0010814047586015273 -0.02703312428183374 0.9989185952413986 0.02703312428183374 0.9989185952413986 0.02703312428183374 0.0010814047586015273 -0.02703312428183374
1755.9178755965756 0.0010058512583886528 -0.025861920008723633 0.9989941487416114 0.025861920008723633 0.9989941487416114 0.025861920008723633 0.0010058512583886528 -0.025861920008723633
1836.3251326795319 9.359323257070748E-4 -0.024741444617998667 0.9990640676742929 0.024741444617998667 0.9990640676742929 0.024741444617998667 9.359323257070748E-4 -0.024741444617998667
1920.4144110468878 8.711836248990532E-4 -0.023669490463688853 0.999128816375101 0.023669490463688853 0.999128816375101 0.023669490463688853 8.711836248990532E-4 -0.023669490463688853
2008.3543183745 8.111838656099678E-4 -0.022643943562783077 0.9991888161343901 0.022643943562783077 0.9991888161343901 0.022643943562783077 8.111838656099678E-4 -0.022643943562783077
2100.321183246434 7.555510340132264E-4 -0.02166278052515236 0.999244448965987 0.02166278052515236 0.999244448965987 0.02166278052515236 7.555510340132264E-4 -0.02166278052515236
2196.4994087119585 7.039388400070846E-4 -0.020724065493569834 0.9992960611599928 0.020724065493569834 0.9992960611599928 0.020724065493569834 7.039388400070846E-4 -0.020724065493569834
2297.0818420326846 6.560333741315453E-4 -0.019825947088201342 0.9993439666258683 0.019825947088201342 0.9993439666258683 0.019825947088201342 6.560333741315453E-4 -0.019825947088201342
2402.270161361206 6.115499713284842E-4 -0.018966655352159224 0.9993884500286715 0.018966655352159224 0.9993884500286715 0.018966655352159224 6.115499713284842E-4 -0.018966655352159224
2512.2752801266033 5.70230281138597E-4 -0.018144498697511193 0.9994297697188613 0.018144498697511193 0.9994297697188613 0.018144498697511193 5.70230281138597E-4 -0.018144498697511193
2627.3177699376165 5.318395453850281E-4 -0.01735786085425351 0.9994681604546151 0.01735786085425351 0.9994681604546151 0.01735786085425351 5.318395453850281E-4 -0.01735786085425351
2747.6283028514745 4.961640848087533E-4 -0.01660519782791171 0.9995038359151913 0.01660519782791171 0.9995038359151913 0.01660519782791171 4.961640848087533E-4 -0.01660519782791171
2873.4481138951564 4.630089955542136E-4 -0.015885034874342733 0.999536991004446 0.015885034874342733 0.999536991004446 0.015885034874342733 4.630089955542136E-4 -0.015885034874342733
3005.0294847665045 4.321960549936027E-4 -0.015195963502736637 0.9995678039450064 0.015195963502736637 0.9995678039450064 0.015195963502736637 4.321960549936027E-4 -0.015195963502736637
3142.6362496850466 4.035618343253431E-4 -0.014536638519564724 0.9995964381656748 0.014536638519564724 0.9995964381656748 0.014536638519564724 4.035618343253431E-4 -0.014536638519564724
3286.544324406816 3.769560129265962E-4 -0.013905775127180725 0.9996230439870734 0.013905775127180725 0.9996230439870734 0.013905775127180725 3.769560129265962E-4 -0.013905775127180725
3437.0422594639017 3.522398868338088E-4 -0.013302146090914468 0.9996477601131661 0.013302146090914468 0.9996477601131661 0.013302146090914468 3.522398868338088E-4 -0.013302146090914468
3594.431818738024 3.2928506120901086E-4 -0.01272457898784348 0.999670714938791 0.01272457898784348 0.999670714938791 0.01272457898784348 3.2928506120901086E-4 -0.01272457898784348
3759.0285845282415 3.0797231442784286E-4 -0.012171953549088885 0.9996920276855722 0.012171953549088885 0.9996920276855722 0.012171953549088885 3.0797231442784286E-4 -0.012171953549088885
3931.162590326006 2.881906196529932E-4 -0.011643199105606078 0.999711809380347 0.011643199105606078 0.999711809380347 0.011643199105606078 2.881906196529932E-4 -0.011643199105606078
4111.17898256636 2.698363085310488E-4 -0.011137292145202019 0.9997301636914688 0.011137292145202019 0.9997301636914688 0.011137292145202019 2.698363085310488E-4 -0.011137292145202019
4299.438712682125 2.5281236101059316E-4 -0.010653253986090697 0.9997471876389895 0.010653253986090697 0.9997471876389895 0.010653253986090697 2.5281236101059316E-4 -0.010653253986090697
4496.31926084876 2.370278052111852E-4 -0.010190148569863281 0.9997629721947888 0.010190148569863281 0.9997629721947888 0.010190148569863281 2.370278052111852E-4 -0.010190148569863281
4702.215392871039 2.2239721172094743E-4 -0.009747080374445912 0.9997776027882791 0.009747080374445912 0.9997776027882791 0.009747080374445912 2.2239721172094743E-4 -0.009747080374445912
4917.539951729213 2.0884026757936853E-4 -0.009323192445555604 0.9997911597324208 0.009323192445555604 0.9997911597324208 0.009323192445555604 2.0884026757936853E-4 -0.009323192445555604
5142.724685371758 1.9628141640945116E-4 -0.008917664543421326 0.9998037185835905 0.008917664543421326 0.9998037185835905 0.008917664543421326 1.9628141640945116E-4 -0.008917664543421326
5378.221112414543 1.8464955259222293E-4 -0.008529711400151229 0.9998153504474077 0.008529711400151229 0.9998153504474077 0.008529711400151229 1.8464955259222293E-4 -0.008529711400151229
5624.501427482224 1.7387775892434865E-4 -0.00815858108211045 0.9998261222410756 0.00815858108211045 0.9998261222410756 0.00815858108211045 1.7387775892434865E-4 -0.00815858108211045
5882.059448007167 1.639030787750692E-4 -0.007803553451010354 0.9998360969212248 0.007803553451010354 0.9998360969212248 0.007803553451010354 1.639030787750692E-4 -0.007803553451010354
6151.41160438433 1.5466631528668963E-4 -0.007463938717065719 0.9998453336847132 0.007463938717065719 0.9998453336847132 0.007463938717065719 1.5466631528668963E-4 -0.007463938717065719
6433.097975467465 1.4611185158569629E-4 -0.007139076077506715 0.9998538881484144 0.007139076077506715 0.9998538881484144 0.007139076077506715 1.4611185158569629E-4 -0.007139076077506715
6727.683371482931 1.3818748724903407E-4 -0.006828332433885022 0.9998618125127511 0.006828332433885022 0.9998618125127511 0.006828332433885022 1.3818748724903407E-4 -0.006828332433885022
7035.758466532445 1.3084428737783864E-4 -0.006531101181936077 0.9998691557126221 0.006531101181936077 0.9998691557126221 0.006531101181936077 1.3084428737783864E-4 -0.006531101181936077
7357.940982955574 1.2403644155828774E-4 -0.006246801068201357 0.9998759635584415 0.006246801068201357 0.9998759635584415 0.006246801068201357 1.2403644155828774E-4 -0.006246801068201357
7694.876929926739 1.177211307364915E-4 -0.005974875108130095 0.9998822788692636 0.005974875108130095 0.9998822788692636 0.005974875108130095 1.177211307364915E-4 -0.005974875108130095
8047.241898770236 1.1185840061006517E-4 -0.005714789560929048 0.9998881415993899 0.005714789560929048 0.9998881415993899 0.005714789560929048 1.1185840061006517E-4 -0.005714789560929048
8415.742417590522 1.0641104055778805E-4 -0.005466032956978174 0.9998935889594422 0.005466032956978174 0.9998935889594422 0.005466032956978174 1.0641104055778805E-4 -0.005466032956978174
8801.117367933934 1.0134446740911368E-4 -0.005228115174152317 0.9998986555325907 0.005228115174152317 0.9998986555325907 0.005228115174152317 1.0134446740911368E-4 -0.005228115174152317
9204.139466322391 9.662661351833818E-5 -0.005000566559863283 0.9999033733864816 0.005000566559863283 0.9999033733864816 0.005000566559863283 9.662661351833818E-5 -0.005000566559863283
9625.61681362972 9.222781867642413E-5 -0.004782937096047129 0.9999077721813234 0.004782937096047129 0.9999077721813234 0.004782937096047129 9.222781867642413E-5 -0.004782937096047129
10066.394515407255 8.812072538992008E-5 -0.004574795604658136 0.9999118792746101 0.004574795604658136 0.9999118792746101 0.004574795604658136 8.812072538992008E-5 -0.004574795604658136
10527.356376407623 8.4280177004261E-5 -0.004375728991487491 0.9999157198229958 0.004375728991487491 0.9999157198229958 0.004375728991487491 8.4280177004261E-5 -0.004375728991487491
11009.426672704432 8.068311807072296E-5 -0.004185341526300501 0.9999193168819294 0.004185341526300501 0.9999193168819294 0.004185341526300501 8.068311807072296E-5 -0.004185341526300501
11513.572004961125 7.730849627421631E-5 -0.0040032541573840575 0.9999226915037256 0.0040032541573840575 0.9999226915037256 0.0040032541573840575 7.730849627421631E-5 -0.0040032541573840575
12040.803236564994 7.413716517315482E-5 -0.0038291038586236244 0.9999258628348269 0.0038291038586236244 0.9999258628348269 0.0038291038586236244 7.413716517315482E-5 -0.0038291038586236244
