!Murata Part Number: GRM155R61H474KE11
!These Parameters are Measured in Series Mode Connection
!       o--ll--o
!Port1            Port2
!       o------o
!Operation Temp=25[degC], DC Bias Voltage=0[V]
!Freq. Start=100[Hz] Stop=6[GHz], 401[Steps]
!Data Generated on Nov 6, 2018
# Hz S RI R 50
!Freq.(Hz) S11(Real) S11(Imag) S21(Real) S21(Imag) S12(Real) S12(Imag) S22(Real) S22(Imag)
100.0 0.9992572574689486 -0.021144240142162696 7.427425310515945E-4 0.021144240142162696 7.427425310515945E-4 0.021144240142162696 0.9992572574689486 -0.021144240142162696
104.57921513303334 0.9992031714985063 -0.02210256362737729 7.968285014935774E-4 0.02210256362737729 7.968285014935774E-4 0.02210256362737729 0.9992031714985063 -0.02210256362737729
109.3681223784127 0.9991445615994907 -0.02310430433513321 8.554384005092803E-4 0.02310430433513321 8.554384005092803E-4 0.02310430433513321 0.9991445615994907 -0.02310430433513321
114.3763239890794 0.9990810231184137 -0.02415138996359475 9.189768815862588E-4 0.02415138996359475 9.189768815862588E-4 0.02415138996359475 0.9990810231184137 -0.02415138996359475
119.61386192579457 0.9990121188732797 -0.02524582935226799 9.878811267203815E-4 0.02524582935226799 9.878811267203815E-4 0.02524582935226799 0.9990121188732797 -0.02524582935226799
125.09123799230618 0.9989373767162931 -0.026389715975092543 0.0010626232837069106 0.026389715975092543 0.0010626232837069106 0.026389715975092543 0.9989373767162931 -0.026389715975092543
130.8194348925486 0.9988562868529813 -0.027585231622094992 0.0011437131470188036 0.027585231622094992 0.0011437131470188036 0.027585231622094992 0.9988562868529813 -0.027585231622094992
136.8099382520969 0.9987682988837713 -0.02883465027905361 0.0012317011162287482 0.02883465027905361 0.0012317011162287482 0.02883465027905361 0.9987682988837713 -0.02883465027905361
143.0747596480305 0.998672818528551 -0.030140342213162252 0.001327181471448976 0.030140342213162252 0.001327181471448976 0.030140342213162252 0.998672818528551 -0.030140342213162252
149.6264606933842 0.9985692039887512 -0.031504778270169204 0.001430796011248792 0.031504778270169204 0.001430796011248792 0.031504778270169204 0.9985692039887512 -0.031504778270169204
156.47817822447783 0.9984567618952211 -0.032930534384719684 0.0015432381047788902 0.032930534384719684 0.0015432381047788902 0.032930534384719684 0.9984567618952211 -0.032930534384719684
163.643650641628 0.9983347427838616 -0.03442029630049476 0.0016652572161384189 0.03442029630049476 0.0016652572161384189 0.03442029630049476 0.9983347427838616 -0.03442029630049476
171.13724545605763 0.9982023360349351 -0.03597686449011969 0.001797663965064962 0.03597686449011969 0.001797663965064962 0.03597686449011969 0.9982023360349351 -0.03597686449011969
178.97398809823787 0.9980586642065348 -0.03760315925668678 0.0019413357934651685 0.03760315925668678 0.0019413357934651685 0.03760315925668678 0.9980586642065348 -0.03760315925668678
187.1695920454257 0.9979027766882308 -0.039302225989179665 0.002097223311769198 0.039302225989179665 0.002097223311769198 0.039302225989179665 0.9979027766882308 -0.039302225989179665
195.74049032880657 0.9977336425977736 -0.04107724053327638 0.0022663574022262576 0.04107724053327638 0.0022663574022262576 0.04107724053327638 0.9977336425977736 -0.04107724053327638
204.70386848341695 0.9975501428422535 -0.04293151462724668 0.0024498571577465478 0.04293151462724668 0.0024498571577465478 0.04293151462724668 0.9975501428422535 -0.04293151462724668
214.0776990069143 0.9973510612654943 -0.04486850134034126 0.00264893873450564 0.04486850134034126 0.00264893873450564 0.04486850134034126 0.9973510612654943 -0.04486850134034126
223.88077739628844 0.9971350748058456 -0.04689180043867972 0.0028649251941543436 0.04689180043867972 0.0028649251941543436 0.04689180043867972 0.9971350748058456 -0.04689180043867972
234.132759834772 0.996900742592829 -0.04900516359169548 0.0030992574071709374 0.04900516359169548 0.0030992574071709374 0.04900516359169548 0.996900742592829 -0.04900516359169548
244.85420260451448 0.9966464939171186 -0.05121249932119609 0.0033535060828814977 0.05121249932119609 0.0033535060828814977 0.05121249932119609 0.9966464939171186 -0.05121249932119609
256.06660330404856 0.9963706150156368 -0.05351787758547077 0.0036293849843631533 0.05351787758547077 0.0036293849843631533 0.05351787758547077 0.9963706150156368 -0.05351787758547077
267.792443953192 0.9960712346216065 -0.05592553388290179 0.00392876537839352 0.05592553388290179 0.00392876537839352 0.05592553388290179 0.9960712346216065 -0.05592553388290179
280.0552360718164 0.9957463082375182 -0.05843987275329459 0.004253691762481917 0.05843987275329459 0.004253691762481917 0.05843987275329459 0.9957463082375182 -0.05843987275329459
292.87956782286926 0.9953936010964871 -0.06106547055046102 0.004606398903512886 0.06106547055046102 0.004606398903512886 0.06106547055046102 0.9953936010964871 -0.06106547055046102
306.2911533141767 0.9950106697837009 -0.06380707735605208 0.00498933021629905 0.06380707735605208 0.00498933021629905 0.06380707735605208 0.9950106697837009 -0.06380707735605208
320.3168841578819 0.994594842494113 -0.06666961790157247 0.005405157505886846 0.06666961790157247 0.005405157505886846 0.06666961790157247 0.994594842494113 -0.06666961790157247
334.9848833909005 0.9941431979049288 -0.06965819136205646 0.0058568020950711865 0.06965819136205646 0.0058568020950711865 0.06965819136205646 0.9941431979049288 -0.06965819136205646
350.32456186451077 0.9936525426417422 -0.07277806988007238 0.006347457358257839 0.07277806988007238 0.006347457358257839 0.07277806988007238 0.9936525426417422 -0.07277806988007238
366.36667721614316 0.9931193873157493 -0.07603469567153746 0.006880612684250561 0.07603469567153746 0.006880612684250561 0.07603469567153746 0.9931193873157493 -0.07603469567153746
383.1433955416162 0.9925399211068928 -0.07943367655434942 0.007460078893107204 0.07943367655434942 0.007460078893107204 0.07943367655434942 0.9925399211068928 -0.07943367655434942
400.68835589147574 0.991909984865005 -0.08298077972629996 0.008090015134995009 0.08298077972629996 0.008090015134995009 0.08298077972629996 0.991909984865005 -0.08298077972629996
419.03673772076064 0.9912250426991469 -0.08668192359961373 0.008774957300853072 0.08668192359961373 0.008774957300853072 0.08668192359961373 0.9912250426991469 -0.08668192359961373
438.225331427439 0.9904801520256302 -0.09054316747550116 0.009519847974369833 0.09054316747550116 0.009519847974369833 0.09054316747550116 0.9904801520256302 -0.09054316747550116
458.2926121209498 0.9896699320490208 -0.09457069881338638 0.01033006795097935 0.09457069881338638 0.01033006795097935 0.09457069881338638 0.9896699320490208 -0.09457069881338638
479.2788167687661 0.9887885306590368 -0.09877081781630415 0.011211469340963216 0.09877081781630415 0.011211469340963216 0.09877081781630415 0.9887885306590368 -0.09877081781630415
501.22602487566456 0.9878295897409138 -0.10314991901694222 0.012170410259086249 0.10314991901694222 0.012170410259086249 0.10314991901694222 0.9878295897409138 -0.10314991901694222
524.1782428574726 0.9867862089186187 -0.10771446950872521 0.013213791081381428 0.10771446950872521 0.013213791081381428 0.10771446950872521 0.9867862089186187 -0.10771446950872521
548.1814922784702 0.9856509077802469 -0.11247098342413342 0.014349092219753118 0.11247098342413342 0.014349092219753118 0.11247098342413342 0.9856509077802469 -0.11247098342413342
573.2839021293739 0.9844155866738652 -0.11742599221917152 0.015584413326134835 0.11742599221917152 0.015584413326134835 0.11742599221917152 0.9844155866738652 -0.11742599221917152
599.5358053309263 0.9830714862107282 -0.12258601027967117 0.01692851378927186 0.12258601027967117 0.01692851378927186 0.12258601027967117 0.9830714862107282 -0.12258601027967117
626.9898396565933 0.9816091456718722 -0.12795749532311404 0.01839085432812786 0.12795749532311404 0.01839085432812786 0.12795749532311404 0.9816091456718722 -0.12795749532311404
655.7010532767296 0.9800183605841917 -0.13354680303014763 0.01998163941580848 0.13354680303014763 0.01998163941580848 0.13354680303014763 0.9800183605841917 -0.13354680303014763
685.7270151358366 0.9782881398138679 -0.13936013530426256 0.021711860186132175 0.13936013530426256 0.021711860186132175 0.13936013530426256 0.9782881398138679 -0.13936013530426256
717.1279303842347 0.9764066626190704 -0.14540348152767701 0.02359333738092957 0.14540348152767701 0.02359333738092957 0.14540348152767701 0.9764066626190704 -0.14540348152767701
749.9667610955984 0.9743612362108481 -0.15168255215793097 0.025638763789151916 0.15168255215793097 0.025638763789151916 0.15168255215793097 0.9743612362108481 -0.15168255215793097
784.3093525124082 0.9721382544917703 -0.1582027039949084 0.02786174550822977 0.1582027039949084 0.02786174550822977 0.1582027039949084 0.9721382544917703 -0.1582027039949084
820.2245650724522 0.9697231587768745 -0.16496885644410184 0.030276841223125434 0.16496885644410184 0.030276841223125434 0.16496885644410184 0.9697231587768745 -0.16496885644410184
857.7844124811068 0.9671004014515406 -0.17198539811147387 0.032899598548459315 0.17198539811147387 0.032899598548459315 0.17198539811147387 0.9671004014515406 -0.17198539811147387
897.0642061062428 0.9642534136867152 -0.17925608309124094 0.03574658631328472 0.17925608309124094 0.03574658631328472 0.17925608309124094 0.9642534136867152 -0.17925608309124094
938.1427059852851 0.9611645785140143 -0.18678391635395358 0.03883542148598583 0.18678391635395358 0.03883542148598583 0.18678391635395358 0.9611645785140143 -0.18678391635395358
981.102278747212 0.9578152107619704 -0.19457102771269955 0.042184789238029555 0.19457102771269955 0.042184789238029555 0.19457102771269955 0.9578152107619704 -0.19457102771269955
1026.0290627661395 0.9541855455700448 -0.20261853394538767 0.045814454429955326 0.20261853394538767 0.045814454429955326 0.20261853394538767 0.9541855455700448 -0.20261853394538767
1073.0131408776467 0.950254737428324 -0.21092638878716471 0.04974526257167608 0.21092638878716471 0.04974526257167608 0.21092638878716471 0.950254737428324 -0.21092638878716471
1122.1487210041523 0.9460008719365042 -0.21949322068663207 0.05399912806349584 0.21949322068663207 0.05399912806349584 0.21949322068663207 0.9460008719365042 -0.21949322068663207
1173.5343250515148 0.9414009927327712 -0.22831615845150907 0.05859900726722895 0.22831615845150907 0.05859900726722895 0.22831615845150907 0.9414009927327712 -0.22831615845150907
1227.2729864556143 0.9364311463065048 -0.2373906452040168 0.06356885369349516 0.2373906452040168 0.06356885369349516 0.2373906452040168 0.9364311463065048 -0.2373906452040168
1283.4724567750195 0.9310664476704859 -0.246710241435009 0.06893355232951402 0.246710241435009 0.06893355232951402 0.246710241435009 0.9310664476704859 -0.246710241435009
1342.245421743976 0.925281170116861 -0.2562664184011781 0.07471882988313906 0.2562664184011781 0.07471882988313906 0.2562664184011781 0.925281170116861 -0.2562664184011781
1403.7097272189235 0.9190488625001836 -0.2660483436640772 0.08095113749981638 0.2660483436640772 0.08095113749981638 0.2660483436640772 0.9190488625001836 -0.2660483436640772
1467.9886154715937 0.912342497658198 -0.2760426612348521 0.08765750234180197 0.2760426612348521 0.08765750234180197 0.2760426612348521 0.912342497658198 -0.2760426612348521
1535.2109723024755 0.9051346556678098 -0.28623326957336703 0.09486534433219018 0.28623326957336703 0.09486534433219018 0.28623326957336703 0.9051346556678098 -0.28623326957336703
1605.5115854701387 0.8973977456037587 -0.2966011015988157 0.10260225439624122 0.2966011015988157 0.10260225439624122 0.2966011015988157 0.8973977456037587 -0.2966011015988157
1679.0314149545911 0.8891042692775016 -0.3071239118970027 0.11089573072249823 0.3071239118970027 0.11089573072249823 0.3071239118970027 0.8891042692775016 -0.3071239118970027
1755.9178755965756 0.8802271300341497 -0.31777607744212727 0.11977286996585024 0.31777607744212727 0.11977286996585024 0.31777607744212727 0.8802271300341497 -0.31777607744212727
1836.3251326795319 0.8707399890222693 -0.32852841935813476 0.12926001097773054 0.32852841935813476 0.12926001097773054 0.32852841935813476 0.8707399890222693 -0.32852841935813476
1920.4144110468878 0.8606176703708299 -0.3393480544782636 0.13938232962917013 0.3393480544782636 0.13938232962917013 0.3393480544782636 0.8606176703708299 -0.3393480544782636
2008.3543183745 0.8498366153602404 -0.35019828665192876 0.15016338463975948 0.35019828665192876 0.15016338463975948 0.35019828665192876 0.8498366153602404 -0.35019828665192876
2100.321183246434 0.8383753839227187 -0.3610385488035872 0.16162461607728126 0.3610385488035872 0.16162461607728126 0.3610385488035872 0.8383753839227187 -0.3610385488035872
2196.4994087119585 0.8262151996335966 -0.3718244075546655 0.17378480036640342 0.3718244075546655 0.17378480036640342 0.3718244075546655 0.8262151996335966 -0.3718244075546655
2297.0818420326846 0.8133405317712132 -0.3825076426441954 0.18665946822878676 0.3825076426441954 0.18665946822878676 0.3825076426441954 0.8133405317712132 -0.3825076426441954
2402.270161361206 0.7997397050786608 -0.3930364132815087 0.20026029492133915 0.3930364132815087 0.20026029492133915 0.3930364132815087 0.7997397050786608 -0.3930364132815087
2512.2752801266033 0.785405524651949 -0.40335552278855036 0.21459447534805093 0.40335552278855036 0.21459447534805093 0.40335552278855036 0.785405524651949 -0.40335552278855036
2627.3177699376165 0.7703359000539262 -0.41340679130575747 0.22966409994607384 0.41340679130575747 0.22966409994607384 0.41340679130575747 0.7703359000539262 -0.41340679130575747
2747.6283028514745 0.7545344495120777 -0.42312954383949497 0.2454655504879223 0.42312954383949497 0.2454655504879223 0.42312954383949497 0.7545344495120777 -0.42312954383949497
2873.4481138951564 0.7380110621499704 -0.4324612174653168 0.26198893785002975 0.4324612174653168 0.26198893785002975 0.4324612174653168 0.7380110621499704 -0.4324612174653168
3005.0294847665045 0.7207823939122449 -0.4413380870830641 0.27921760608775514 0.4413380870830641 0.27921760608775514 0.4413380870830641 0.7207823939122449 -0.4413380870830641
3142.6362496850466 0.7028722714748994 -0.44969610384617903 0.2971277285251005 0.44969610384617903 0.2971277285251005 0.44969610384617903 0.7028722714748994 -0.44969610384617903
3286.544324406816 0.6843119782803424 -0.4574718344555275 0.31568802171965765 0.4574718344555275 0.31568802171965765 0.4574718344555275 0.6843119782803424 -0.4574718344555275
3437.0422594639017 0.6651403981529217 -0.4646034832155576 0.3348596018470783 0.4646034832155576 0.3348596018470783 0.4646034832155576 0.6651403981529217 -0.4646034832155576
3594.431818738024 0.6454039949105139 -0.4710319724890076 0.3545960050894861 0.4710319724890076 0.3545960050894861 0.4710319724890076 0.6454039949105139 -0.4710319724890076
3759.0285845282415 0.6251566110541615 -0.4767020514188137 0.3748433889458385 0.4767020514188137 0.3748433889458385 0.4767020514188137 0.6251566110541615 -0.4767020514188137
3931.162590326006 0.604459074912564 -0.4815633980127645 0.3955409250874361 0.4815633980127645 0.3955409250874361 0.4815633980127645 0.604459074912564 -0.4815633980127645
4111.17898256636 0.5833786133051381 -0.48557167639902693 0.41662138669486193 0.48557167639902693 0.41662138669486193 0.48557167639902693 0.5833786133051381 -0.48557167639902693
4299.438712682125 0.5619880754712783 -0.488689509687063 0.43801192452872184 0.488689509687063 0.43801192452872184 0.488689509687063 0.5619880754712783 -0.488689509687063
4496.31926084876 0.5403649831596623 -0.49088732971868404 0.45963501684033786 0.49088732971868404 0.45963501684033786 0.49088732971868404 0.5403649831596623 -0.49088732971868404
4702.215392871039 0.5185904307451922 -0.49214406821170875 0.4814095692548078 0.49214406821170875 0.4814095692548078 0.49214406821170875 0.5185904307451922 -0.49214406821170875
4917.539951729213 0.4967478673648317 -0.49244765932762063 0.5032521326351683 0.49244765932762063 0.5032521326351683 0.49244765932762063 0.4967478673648317 -0.49244765932762063
5142.724685371758 0.4749217996855435 -0.4917953312666527 0.5250782003144565 0.4917953312666527 0.5250782003144565 0.4917953312666527 0.4749217996855435 -0.4917953312666527
5378.221112414543 0.45319645848353035 -0.49019367364252564 0.5468035415164697 0.49019367364252564 0.5468035415164697 0.49019367364252564 0.45319645848353035 -0.49019367364252564
5624.501427482224 0.43165447433131354 -0.4876584774894672 0.5683455256686865 0.4876584774894672 0.5683455256686865 0.4876584774894672 0.43165447433131354 -0.4876584774894672
5882.059448007167 0.4103756071734978 -0.48421435508311944 0.5896243928265024 0.48421435508311944 0.5896243928265024 0.48421435508311944 0.4103756071734978 -0.48421435508311944
6151.41160438433 0.38943557146951113 -0.4798941565681957 0.6105644285304888 0.4798941565681957 0.6105644285304888 0.4798941565681957 0.38943557146951113 -0.4798941565681957
6433.097975467465 0.3689049931630721 -0.4747382089875294 0.631095006836928 0.4747382089875294 0.631095006836928 0.4747382089875294 0.3689049931630721 -0.4747382089875294
6727.683371482931 0.3488485274659277 -0.46879341013220094 0.6511514725340721 0.46879341013220094 0.6511514725340721 0.46879341013220094 0.3488485274659277 -0.46879341013220094
7035.758466532445 0.32932415791650915 -0.4621122142906153 0.670675842083491 0.4621122142906153 0.670675842083491 0.4621122142906153 0.32932415791650915 -0.4621122142906153
7357.940982955574 0.3103826880599464 -0.4547515492814352 0.6896173119400537 0.4547515492814352 0.6896173119400537 0.4547515492814352 0.3103826880599464 -0.4547515492814352
7694.876929926739 0.2920674280591579 -0.4467717041355005 0.7079325719408421 0.4467717041355005 0.7079325719408421 0.4467717041355005 0.2920674280591579 -0.4467717041355005
8047.241898770236 0.2744140701851178 -0.43823522465663106 0.7255859298148822 0.43823522465663106 0.7255859298148822 0.43823522465663106 0.2744140701851178 -0.43823522465663106
8415.742417590522 0.25745073992866035 -0.4292058501988156 0.7425492600713398 0.4292058501988156 0.7425492600713398 0.4292058501988156 0.25745073992866035 -0.4292058501988156
8801.117367933934 0.24119820375924342 -0.419747519801351 0.7588017962407566 0.419747519801351 0.7588017962407566 0.419747519801351 0.24119820375924342 -0.419747519801351
9204.139466322391 0.2256702105027135 -0.4099234698185035 0.7743297894972865 0.4099234698185035 0.7743297894972865 0.4099234698185035 0.2256702105027135 -0.4099234698185035
9625.61681362972 0.21087394094461376 -0.399795438850996 0.7891260590553862 0.399795438850996 0.7891260590553862 0.399795438850996 0.21087394094461376 -0.399795438850996
10066.394515407255 0.19681053948402183 -0.3894229895672409 0.8031894605159781 0.3894229895672409 0.8031894605159781 0.3894229895672409 0.19681053948402183 -0.3894229895672409
10527.356376407623 0.18347570226399862 -0.37886295124774233 0.8165242977360014 0.37886295124774233 0.8165242977360014 0.37886295124774233 0.18347570226399862 -0.37886295124774233
11009.426672704432 0.1708602979245063 -0.36816898185713554 0.8291397020754936 0.36816898185713554 0.8291397020754936 0.36816898185713554 0.1708602979245063 -0.36816898185713554
11513.572004961125 0.1589509996689046 -0.357391244308095 0.8410490003310953 0.357391244308095 0.8410490003310953 0.357391244308095 0.1589509996689046 -0.357391244308095
12040.803236564994 0.14773091041255507 -0.3465761884019785 0.8522690895874447 0.3465761884019785 0.8522690895874447 0.3465761884019785 0.14773091041255507 -0.3465761884019785
12592.177520512549 0.13718016612097722 -0.33576642770714665 0.8628198338790228 0.33576642770714665 0.8628198338790228 0.33576642770714665 0.13718016612097722 -0.33576642770714665
13168.800419110281 0.12727650581284528 -0.32500069930116615 0.8727234941871547 0.32500069930116615 0.8727234941871547 0.32500069930116615 0.12727650581284528 -0.32500069930116615
