!Murata Part Number: GRM188R61E225KA12
!These Parameters are Measured in Series Mode Connection
!       o--ll--o
!Port1            Port2
!       o------o
!Operation Temp=25[degC], DC Bias Voltage=0[V]
!Freq. Start=100[Hz] Stop=6[GHz], 401[Steps]
!Data Generated on Aug 1, 2022
# Hz S RI R 50
!Freq.(Hz) S11(Real) S11(Imag) S21(Real) S21(Imag) S12(Real) S12(Imag) S22(Real) S22(Imag)
100.0 0.9894344563631863 -0.09369669015915733 0.010565543636813774 0.09369669015915733 0.010565543636813774 0.09369669015915733 0.9894344563631863 -0.09369669015915733
104.57921513303334 0.9885393778543355 -0.09784561566931257 0.011460622145664406 0.09784561566931257 0.011460622145664406 0.09784561566931257 0.9885393778543355 -0.09784561566931257
109.3681223784127 0.9875657669682175 -0.10216942719913721 0.012434233031782354 0.10216942719913721 0.012434233031782354 0.10216942719913721 0.9875657669682175 -0.10216942719913721
114.3763239890794 0.9865068638813904 -0.10667411771050613 0.01349313611860954 0.10667411771050613 0.01349313611860954 0.10667411771050613 0.9865068638813904 -0.10667411771050613
119.61386192579457 0.985355388059608 -0.11136570472344558 0.01464461194039199 0.11136570472344558 0.01464461194039199 0.11136570472344558 0.985355388059608 -0.11136570472344558
125.09123799230618 0.9841035057752145 -0.1162502054210078 0.015896494224785434 0.1162502054210078 0.015896494224785434 0.1162502054210078 0.9841035057752145 -0.1162502054210078
130.8194348925486 0.9827427964205352 -0.12133360820852053 0.017257203579464794 0.12133360820852053 0.017257203579464794 0.12133360820852053 0.9827427964205352 -0.12133360820852053
136.8099382520969 0.9812642176811087 -0.12662184036060964 0.018735782318891156 0.12662184036060964 0.018735782318891156 0.12662184036060964 0.9812642176811087 -0.12662184036060964
143.0747596480305 0.9796580696516682 -0.1321207313469014 0.02034193034833192 0.1321207313469014 0.02034193034833192 0.1321207313469014 0.9796580696516682 -0.1321207313469014
149.6264606933842 0.9779139580035339 -0.1378359713760595 0.022086041996466226 0.1378359713760595 0.022086041996466226 0.1378359713760595 0.9779139580035339 -0.1378359713760595
156.47817822447783 0.9760207563478265 -0.14377306463689507 0.02397924365217357 0.14377306463689507 0.02397924365217357 0.14377306463689507 0.9760207563478265 -0.14377306463689507
163.643650641628 0.9739665679887348 -0.14993727664437567 0.02603343201126528 0.14993727664437567 0.02603343201126528 0.14993727664437567 0.9739665679887348 -0.14993727664437567
171.13724545605763 0.9717386873300284 -0.15633357501804646 0.028261312669971533 0.15633357501804646 0.028261312669971533 0.15633357501804646 0.9717386873300284 -0.15633357501804646
178.97398809823787 0.96932356129184 -0.16296656293255185 0.03067643870815995 0.16296656293255185 0.03067643870815995 0.16296656293255185 0.96932356129184 -0.16296656293255185
187.1695920454257 0.9667067512197958 -0.1698404043882312 0.033293248780204156 0.1698404043882312 0.033293248780204156 0.1698404043882312 0.9667067512197958 -0.1698404043882312
195.74049032880657 0.963872895931367 -0.17695874035989628 0.036127104068633 0.17695874035989628 0.036127104068633 0.17695874035989628 0.963872895931367 -0.17695874035989628
204.70386848341695 0.9608056767509542 -0.18432459480212166 0.03919432324904572 0.18432459480212166 0.03919432324904572 0.18432459480212166 0.9608056767509542 -0.18432459480212166
214.0776990069143 0.9574877856407579 -0.19194026943062956 0.04251221435924199 0.19194026943062956 0.04251221435924199 0.19194026943062956 0.9574877856407579 -0.19194026943062956
223.88077739628844 0.9539008978419797 -0.19980722617533686 0.046099102158020176 0.19980722617533686 0.046099102158020176 0.19980722617533686 0.9539008978419797 -0.19980722617533686
234.132759834772 0.9500256508004981 -0.20792595622759474 0.04997434919950189 0.20792595622759474 0.04997434919950189 0.20792595622759474 0.9500256508004981 -0.20792595622759474
244.85420260451448 0.9458416315590841 -0.21629583470039146 0.05415836844091586 0.21629583470039146 0.05415836844091586 0.21629583470039146 0.9458416315590841 -0.21629583470039146
256.06660330404856 0.9413273752458837 -0.22491496010531267 0.05867262475411631 0.22491496010531267 0.05867262475411631 0.22491496010531267 0.9413273752458837 -0.22491496010531267
267.792443953192 0.9364603777621197 -0.23377997814347026 0.06353962223788022 0.23377997814347026 0.06353962223788022 0.23377997814347026 0.9364603777621197 -0.23377997814347026
280.0552360718164 0.931217126250565 -0.24288588972773908 0.06878287374943508 0.24288588972773908 0.06878287374943508 0.24288588972773908 0.931217126250565 -0.24288588972773908
292.87956782286926 0.9255731513838954 -0.2522258437159493 0.07442684861610464 0.2522258437159493 0.07442684861610464 0.2522258437159493 0.9255731513838954 -0.2522258437159493
306.2911533141767 0.9195031059162146 -0.26179091555014466 0.0804968940837853 0.26179091555014466 0.0804968940837853 0.26179091555014466 0.9195031059162146 -0.26179091555014466
320.3168841578819 0.9129808742540817 -0.2715698738704864 0.0870191257459183 0.2715698738704864 0.0870191257459183 0.2715698738704864 0.9129808742540817 -0.2715698738704864
334.9848833909005 0.9059797179831446 -0.2815489382009791 0.09402028201685535 0.2815489382009791 0.09402028201685535 0.2815489382009791 0.9059797179831446 -0.2815489382009791
350.32456186451077 0.8984724622875725 -0.29171153197591565 0.10152753771242744 0.29171153197591565 0.10152753771242744 0.29171153197591565 0.8984724622875725 -0.29171153197591565
366.36667721614316 0.8904317279748254 -0.30203803646820954 0.10956827202517457 0.30203803646820954 0.10956827202517457 0.30203803646820954 0.8904317279748254 -0.30203803646820954
383.1433955416162 0.8818302133209629 -0.31250555255921897 0.11816978667903709 0.31250555255921897 0.11816978667903709 0.31250555255921897 0.8818302133209629 -0.31250555255921897
400.68835589147574 0.8726410291370379 -0.3230876787068269 0.12735897086296194 0.3230876787068269 0.12735897086296194 0.3230876787068269 0.8726410291370379 -0.3230876787068269
419.03673772076064 0.8628380892856534 -0.3337543148627794 0.13716191071434664 0.3337543148627794 0.13716191071434664 0.3337543148627794 0.8628380892856534 -0.3337543148627794
438.225331427439 0.8523965573175664 -0.3444715033848796 0.14760344268243375 0.3444715033848796 0.14760344268243375 0.3444715033848796 0.8523965573175664 -0.3444715033848796
458.2926121209498 0.8412933479334265 -0.3552013190925371 0.15870665206657356 0.3552013190925371 0.15870665206657356 0.3552013190925371 0.8412933479334265 -0.3552013190925371
479.2788167687661 0.8295076796058701 -0.3659018214185626 0.17049232039412993 0.3659018214185626 0.17049232039412993 0.3659018214185626 0.8295076796058701 -0.3659018214185626
501.22602487566456 0.8170216719475049 -0.37652708199686585 0.18297832805249512 0.37652708199686585 0.18297832805249512 0.37652708199686585 0.8170216719475049 -0.37652708199686585
524.1782428574726 0.8038209783375183 -0.38702730086783604 0.19617902166248158 0.38702730086783604 0.19617902166248158 0.38702730086783604 0.8038209783375183 -0.38702730086783604
548.1814922784702 0.7898954410183858 -0.3973490236532251 0.21010455898161418 0.3973490236532251 0.21010455898161418 0.3973490236532251 0.7898954410183858 -0.3973490236532251
573.2839021293739 0.7752397524822846 -0.4074354704330488 0.22476024751771542 0.4074354704330488 0.22476024751771542 0.4074354704330488 0.7752397524822846 -0.4074354704330488
599.5358053309263 0.7598541036677204 -0.4172269845551097 0.24014589633227953 0.4172269845551097 0.24014589633227953 0.4172269845551097 0.7598541036677204 -0.4172269845551097
626.9898396565933 0.7437447965076623 -0.4266616061704382 0.25625520349233777 0.4266616061704382 0.25625520349233777 0.4266616061704382 0.7437447965076623 -0.4266616061704382
655.7010532767296 0.7269247959742567 -0.4356757709206959 0.27307520402574315 0.4356757709206959 0.27307520402574315 0.4356757709206959 0.7269247959742567 -0.4356757709206959
685.7270151358366 0.7094141952363259 -0.44420512898713926 0.29058580476367424 0.44420512898713926 0.29058580476367424 0.44420512898713926 0.7094141952363259 -0.44420512898713926
717.1279303842347 0.6912405671679137 -0.45218547381460134 0.30875943283208634 0.45218547381460134 0.30875943283208634 0.45218547381460134 0.6912405671679137 -0.45218547381460134
749.9667610955984 0.6724391764730954 -0.4595537635133354 0.32756082352690463 0.4595537635133354 0.32756082352690463 0.4595537635133354 0.6724391764730954 -0.4595537635133354
784.3093525124082 0.6530530293148856 -0.4662492115743291 0.3469469706851144 0.4662492115743291 0.3469469706851144 0.4662492115743291 0.6530530293148856 -0.4662492115743291
820.2245650724522 0.6331327416475637 -0.4722144175452086 0.3668672583524362 0.4722144175452086 0.3668672583524362 0.4722144175452086 0.6331327416475637 -0.4722144175452086
857.7844124811068 0.6127362134164728 -0.47739650318815496 0.3872637865835274 0.47739650318815496 0.3872637865835274 0.47739650318815496 0.6127362134164728 -0.47739650318815496
897.0642061062428 0.5919281032213627 -0.48174821586981853 0.40807189677863737 0.48174821586981853 0.40807189677863737 0.48174821586981853 0.5919281032213627 -0.48174821586981853
938.1427059852851 0.5707791065947744 -0.4852289589640502 0.42922089340522557 0.4852289589640502 0.42922089340522557 0.4852289589640502 0.5707791065947744 -0.4852289589640502
981.102278747212 0.549365050235456 -0.4878057092312476 0.45063494976454394 0.4878057092312476 0.45063494976454394 0.4878057092312476 0.549365050235456 -0.4878057092312476
1026.0290627661395 0.5277658237532634 -0.4894537836737127 0.4722341762467365 0.4894537836737127 0.4722341762467365 0.4894537836737127 0.5277658237532634 -0.4894537836737127
1073.0131408776467 0.5060641790573466 -0.49015742326613176 0.4939358209426535 0.49015742326613176 0.4939358209426535 0.49015742326613176 0.5060641790573466 -0.49015742326613176
1122.1487210041523 0.4843444347856648 -0.4899101680262456 0.5156555652143352 0.4899101680262456 0.5156555652143352 0.4899101680262456 0.4843444347856648 -0.4899101680262456
1173.5343250515148 0.4626911285354528 -0.48871500671971674 0.5373088714645472 0.48871500671971674 0.5373088714645472 0.48871500671971674 0.4626911285354528 -0.48871500671971674
1227.2729864556143 0.44118766265581844 -0.4865842945066512 0.5588123373441816 0.4865842945066512 0.5588123373441816 0.4865842945066512 0.44118766265581844 -0.4865842945066512
1283.4724567750195 0.41991498974402147 -0.4835394423352798 0.5800850102559785 0.4835394423352798 0.5800850102559785 0.4835394423352798 0.41991498974402147 -0.4835394423352798
1342.245421743976 0.3989503817109847 -0.4796103921202797 0.6010496182890154 0.4796103921202797 0.6010496182890154 0.4796103921202797 0.3989503817109847 -0.4796103921202797
1403.7097272189235 0.37836632154438826 -0.47483490098557796 0.6216336784556118 0.47483490098557796 0.6216336784556118 0.47483490098557796 0.37836632154438826 -0.47483490098557796
1467.9886154715937 0.35822955010114016 -0.46925766548187337 0.6417704498988597 0.46925766548187337 0.6417704498988597 0.46925766548187337 0.35822955010114016 -0.46925766548187337
1535.2109723024755 0.33860029196568375 -0.4629293222461824 0.6613997080343162 0.4629293222461824 0.6613997080343162 0.4629293222461824 0.33860029196568375 -0.4629293222461824
1605.5115854701387 0.31953167527133663 -0.4559053647919797 0.6804683247286633 0.4559053647919797 0.6804683247286633 0.4559053647919797 0.31953167527133663 -0.4559053647919797
1679.0314149545911 0.3010693510764299 -0.44824501695249674 0.6989306489235702 0.44824501695249674 0.6989306489235702 0.44824501695249674 0.3010693510764299 -0.44824501695249674
1755.9178755965756 0.28325130904839274 -0.4400101020927533 0.7167486909516073 0.4400101020927533 0.7167486909516073 0.4400101020927533 0.28325130904839274 -0.4400101020927533
1836.3251326795319 0.266107878369285 -0.43126394386776934 0.733892121630715 0.43126394386776934 0.733892121630715 0.43126394386776934 0.266107878369285 -0.43126394386776934
1920.4144110468878 0.24966189632923086 -0.4220703294602092 0.750338103670769 0.4220703294602092 0.750338103670769 0.4220703294602092 0.24966189632923086 -0.4220703294602092
2008.3543183745 0.2339290222570269 -0.41249256036655935 0.7660709777429733 0.41249256036655935 0.7660709777429733 0.41249256036655935 0.2339290222570269 -0.41249256036655935
2100.321183246434 0.21891817133246327 -0.4025926094113843 0.7810818286675367 0.4025926094113843 0.7810818286675367 0.4025926094113843 0.21891817133246327 -0.4025926094113843
2196.4994087119585 0.20463204137809116 -0.39243039621281584 0.7953679586219087 0.39243039621281584 0.7953679586219087 0.39243039621281584 0.20463204137809116 -0.39243039621281584
2297.0818420326846 0.19106770577571874 -0.3820631871887193 0.8089322942242813 0.3820631871887193 0.8089322942242813 0.3820631871887193 0.19106770577571874 -0.3820631871887193
2402.270161361206 0.17821724695590752 -0.37154512068304013 0.8217827530440925 0.37154512068304013 0.8217827530440925 0.37154512068304013 0.17821724695590752 -0.37154512068304013
2512.2752801266033 0.16606840718649327 -0.36092685311103323 0.8339315928135066 0.36092685311103323 0.8339315928135066 0.36092685311103323 0.16606840718649327 -0.36092685311103323
2627.3177699376165 0.1546052363467027 -0.35025531828371137 0.8453947636532971 0.35025531828371137 0.8453947636532971 0.35025531828371137 0.1546052363467027 -0.35025531828371137
2747.6283028514745 0.14380871973762038 -0.339573589307881 0.8561912802623796 0.339573589307881 0.8561912802623796 0.339573589307881 0.14380871973762038 -0.339573589307881
2873.4481138951564 0.13365737249874265 -0.3289208306346366 0.8663426275012573 0.3289208306346366 0.8663426275012573 0.3289208306346366 0.13365737249874265 -0.3289208306346366
3005.0294847665045 0.12412779066604684 -0.31833232686329943 0.875872209333953 0.31833232686329943 0.875872209333953 0.31833232686329943 0.12412779066604684 -0.31833232686329943
3142.6362496850466 0.1151951521567134 -0.30783957468424655 0.8848048478432866 0.30783957468424655 0.8848048478432866 0.30783957468424655 0.1151951521567134 -0.30783957468424655
3286.544324406816 0.10683366388209832 -0.29747042472985896 0.8931663361179019 0.29747042472985896 0.8931663361179019 0.29747042472985896 0.10683366388209832 -0.29747042472985896
3437.0422594639017 0.09901695369874382 -0.28724926095920744 0.9009830463012563 0.28724926095920744 0.9009830463012563 0.28724926095920744 0.09901695369874382 -0.28724926095920744
3594.431818738024 0.09171840796928803 -0.2771972063940038 0.908281592030712 0.2771972063940038 0.908281592030712 0.2771972063940038 0.09171840796928803 -0.2771972063940038
3759.0285845282415 0.0849114571143501 -0.267332345426042 0.9150885428856499 0.267332345426042 0.9150885428856499 0.267332345426042 0.0849114571143501 -0.267332345426042
3931.162590326006 0.07856981271088845 -0.2576699544199843 0.9214301872891115 0.2576699544199843 0.9214301872891115 0.2576699544199843 0.07856981271088845 -0.2576699544199843
4111.17898256636 0.07266766046886762 -0.2482227338476565 0.9273323395311323 0.2482227338476565 0.9273323395311323 0.2482227338476565 0.07266766046886762 -0.2482227338476565
4299.438712682125 0.06717981384591197 -0.2390010366375829 0.9328201861540878 0.2390010366375829 0.9328201861540878 0.2390010366375829 0.06717981384591197 -0.2390010366375829
4496.31926084876 0.06208183319620311 -0.2300130887518129 0.937918166803797 0.2300130887518129 0.937918166803797 0.2300130887518129 0.06208183319620311 -0.2300130887518129
4702.215392871039 0.05735011525545851 -0.22126519917474918 0.9426498847445415 0.22126519917474918 0.9426498847445415 0.22126519917474918 0.05735011525545851 -0.22126519917474918
4917.539951729213 0.05296195749771575 -0.2127619574956271 0.9470380425022842 0.2127619574956271 0.9470380425022842 0.2127619574956271 0.05296195749771575 -0.2127619574956271
5142.724685371758 0.048895601517055055 -0.20450641808166733 0.9511043984829451 0.20450641808166733 0.9511043984829451 0.20450641808166733 0.048895601517055055 -0.20450641808166733
5378.221112414543 0.04513025913701983 -0.19650027047837032 0.95486974086298 0.19650027047837032 0.95486974086298 0.19650027047837032 0.04513025913701983 -0.19650027047837032
5624.501427482224 0.04164612447301105 -0.18874399615120818 0.9583538755269891 0.18874399615120818 0.9583538755269891 0.18874399615120818 0.04164612447301105 -0.18874399615120818
5882.059448007167 0.03842437470027791 -0.18123701201916176 0.9615756252997221 0.18123701201916176 0.9615756252997221 0.18123701201916176 0.03842437470027791 -0.18123701201916176
6151.41160438433 0.03544716183550345 -0.17397780144827427 0.9645528381644964 0.17397780144827427 0.9645528381644964 0.17397780144827427 0.03544716183550345 -0.17397780144827427
6433.097975467465 0.03269759743854434 -0.16696403349661434 0.9673024025614556 0.16696403349661434 0.9673024025614556 0.16696403349661434 0.03269759743854434 -0.16696403349661434
6727.683371482931 0.030159731790755706 -0.16019267125366327 0.9698402682092441 0.16019267125366327 0.9698402682092441 0.16019267125366327 0.030159731790755706 -0.16019267125366327
7035.758466532445 0.0278185288100067 -0.1536600701177696 0.9721814711899934 0.1536600701177696 0.9721814711899934 0.1536600701177696 0.0278185288100067 -0.1536600701177696
7357.940982955574 0.025659837718211207 -0.14736206682239514 0.9743401622817888 0.14736206682239514 0.9743401622817888 0.14736206682239514 0.025659837718211207 -0.14736206682239514
7694.876929926739 0.023670362280364843 -0.14129405996945235 0.976329637719635 0.14129405996945235 0.976329637719635 0.14129405996945235 0.023670362280364843 -0.14129405996945235
8047.241898770236 0.021837628278432712 -0.13545108276669002 0.9781623717215673 0.13545108276669002 0.9781623717215673 0.13545108276669002 0.021837628278432712 -0.13545108276669002
8415.742417590522 0.02014994976206508 -0.12982786860332074 0.979850050237935 0.12982786860332074 0.979850050237935 0.12982786860332074 0.02014994976206508 -0.12982786860332074
8801.117367933934 0.018596394524190818 -0.12441891003873166 0.9814036054758092 0.12441891003873166 0.9814036054758092 0.12441891003873166 0.018596394524190818 -0.12441891003873166
9204.139466322391 0.017166749176794005 -0.11921851172589763 0.9828332508232062 0.11921851172589763 0.9828332508232062 0.11921851172589763 0.017166749176794005 -0.11921851172589763
9625.61681362972 0.01585148414521739 -0.1142208377451511 0.9841485158547826 0.1142208377451511 0.9841485158547826 0.1142208377451511 0.01585148414521739 -0.1142208377451511
10066.394515407255 0.014641718853739456 -0.10941995378529192 0.9853582811462603 0.10941995378529192 0.9853582811462603 0.10941995378529192 0.014641718853739456 -0.10941995378529192
10527.356376407623 0.013529187337489935 -0.10480986457697501 0.98647081266251 0.10480986457697501 0.98647081266251 0.10480986457697501 0.013529187337489935 -0.10480986457697501
11009.426672704432 0.012506204483439766 -0.10038454695687676 0.9874937955165602 0.10038454695687676 0.9874937955165602 0.10038454695687676 0.012506204483439766 -0.10038454695687676
11513.572004961125 0.011565633074413672 -0.09613797891914903 0.9884343669255863 0.09613797891914903 0.9884343669255863 0.09613797891914903 0.011565633074413672 -0.09613797891914903
12040.803236564994 0.010700851783615815 -0.09206416499198193 0.989299148216384 0.09206416499198193 0.989299148216384 0.09206416499198193 0.010700851783615815 -0.09206416499198193
12592.177520512549 0.009905724242283184 -0.08815715826070267 0.9900942757577167 0.08815715826070267 0.9900942757577167 0.08815715826070267 0.009905724242283184 -0.08815715826070267
13168.800419110281 0.009174569279365377 -0.0844110793438657 0.9908254307206347 0.0844110793438657 0.9908254307206347 0.0844110793438657 0.009174569279365377 -0.0844110793438657
13771.82812074114 0.00850213240937954 -0.08082013261455429 0.9914978675906205 0.08082013261455429 0.9914978675906205 0.08082013261455429 0.00850213240937954 -0.08082013261455429
