!Murata Part Number: GRM21BR60G476ME01
!These Parameters are Measured in Series Mode Connection
!       o--ll--o
!Port1            Port2
!       o------o
!Operation Temp=25[degC], DC Bias Voltage=0[V]
!Freq. Start=100[Hz] Stop=6[GHz], 401[Steps]
!Data Generated on Sep 6, 2018
# Hz S RI R 50
!Freq.(Hz) S11(Real) S11(Imag) S21(Real) S21(Imag) S12(Real) S12(Imag) S22(Real) S22(Imag)
100.0 0.15154184350947064 -0.3533822724538038 0.8484581564905294 0.3533822724538038 0.8484581564905294 0.3533822724538038 0.15154184350947064 -0.3533822724538038
104.57921513303334 0.14060689822720948 -0.34242259063088015 0.8593931017727905 0.34242259063088015 0.8593931017727905 0.34242259063088015 0.14060689822720948 -0.34242259063088015
109.3681223784127 0.13034541660095364 -0.3314884001205795 0.8696545833990462 0.3314884001205795 0.8696545833990462 0.3314884001205795 0.13034541660095364 -0.3314884001205795
114.3763239890794 0.12073358256115949 -0.3206184035164307 0.8792664174388404 0.3206184035164307 0.8792664174388404 0.3206184035164307 0.12073358256115949 -0.3206184035164307
119.61386192579457 0.11174569059656611 -0.3098473205279108 0.888254309403434 0.3098473205279108 0.888254309403434 0.3098473205279108 0.11174569059656611 -0.3098473205279108
125.09123799230618 0.10335464791588322 -0.29920596454356296 0.8966453520841167 0.29920596454356296 0.8966453520841167 0.29920596454356296 0.10335464791588322 -0.29920596454356296
130.8194348925486 0.09553242917839878 -0.2887213702545835 0.9044675708216013 0.2887213702545835 0.9044675708216013 0.2887213702545835 0.09553242917839878 -0.2887213702545835
136.8099382520969 0.08825048159021094 -0.27841696154101003 0.9117495184097889 0.27841696154101003 0.9117495184097889 0.27841696154101003 0.08825048159021094 -0.27841696154101003
143.0747596480305 0.08148007994564013 -0.26831274965592117 0.9185199200543597 0.26831274965592117 0.9185199200543597 0.26831274965592117 0.08148007994564013 -0.26831274965592117
149.6264606933842 0.07519263262782447 -0.25842555275780543 0.9248073673721756 0.25842555275780543 0.9248073673721756 0.25842555275780543 0.07519263262782447 -0.25842555275780543
156.47817822447783 0.06935994068436738 -0.2487692289525768 0.9306400593156325 0.2487692289525768 0.9306400593156325 0.2487692289525768 0.06935994068436738 -0.2487692289525768
163.643650641628 0.06395441289250661 -0.2393549161452961 0.9360455871074934 0.2393549161452961 0.9360455871074934 0.2393549161452961 0.06395441289250661 -0.2393549161452961
171.13724545605763 0.05894924026108489 -0.2301912731138724 0.941050759738915 0.2301912731138724 0.941050759738915 0.2301912731138724 0.05894924026108489 -0.2301912731138724
178.97398809823787 0.05431853372501356 -0.22128471726404014 0.9456814662749865 0.22128471726404014 0.9456814662749865 0.22128471726404014 0.05431853372501356 -0.22128471726404014
187.1695920454257 0.05003742891373331 -0.21263965548090216 0.9499625710862667 0.21263965548090216 0.9499625710862667 0.21263965548090216 0.05003742891373331 -0.21263965548090216
195.74049032880657 0.04608216185822867 -0.2042587053425632 0.9539178381417712 0.2042587053425632 0.9539178381417712 0.2042587053425632 0.04608216185822867 -0.2042587053425632
204.70386848341695 0.04243011937761086 -0.19614290469997014 0.9575698806223892 0.19614290469997014 0.9575698806223892 0.19614290469997014 0.04243011937761086 -0.19614290469997014
214.0776990069143 0.03905986768767206 -0.18829190825499034 0.960940132312328 0.18829190825499034 0.960940132312328 0.18829190825499034 0.03905986768767206 -0.18829190825499034
223.88077739628844 0.03595116252657656 -0.18070417029184777 0.9640488374734234 0.18070417029184777 0.9640488374734234 0.18070417029184777 0.03595116252657656 -0.18070417029184777
234.132759834772 0.033084943818313416 -0.17337711314443796 0.9669150561816867 0.17337711314443796 0.9669150561816867 0.17337711314443796 0.033084943818313416 -0.17337711314443796
244.85420260451448 0.030443317609138997 -0.16630728132471043 0.9695566823908609 0.16630728132471043 0.9695566823908609 0.16630728132471043 0.030443317609138997 -0.16630728132471043
256.06660330404856 0.0280095277280366 -0.1594904815069085 0.9719904722719636 0.1594904815069085 0.9719904722719636 0.1594904815069085 0.0280095277280366 -0.1594904815069085
267.792443953192 0.02576791934745197 -0.15292190877047102 0.974232080652548 0.15292190877047102 0.974232080652548 0.15292190877047102 0.02576791934745197 -0.15292190877047102
280.0552360718164 0.023703896360336096 -0.14659625966147175 0.9762961036396638 0.14659625966147175 0.9762961036396638 0.14659625966147175 0.023703896360336096 -0.14659625966147175
292.87956782286926 0.021803874246502514 -0.14050783274797504 0.9781961257534977 0.14050783274797504 0.9781961257534977 0.14050783274797504 0.021803874246502514 -0.14050783274797504
306.2911533141767 0.020055229876398285 -0.13465061742653248 0.9799447701236017 0.13465061742653248 0.9799447701236017 0.13465061742653248 0.020055229876398285 -0.13465061742653248
320.3168841578819 0.01844624949336578 -0.1290183717916129 0.9815537505066343 0.1290183717916129 0.9815537505066343 0.1290183717916129 0.01844624949336578 -0.1290183717916129
334.9848833909005 0.01696607592550101 -0.12360469041200868 0.983033924074499 0.12360469041200868 0.983033924074499 0.12360469041200868 0.01696607592550101 -0.12360469041200868
350.32456186451077 0.015604655904270718 -0.11840306287196488 0.9843953440957293 0.11840306287196488 0.9843953440957293 0.11840306287196488 0.015604655904270718 -0.11840306287196488
366.36667721614316 0.014352688208199299 -0.11340692393274762 0.9856473117918008 0.11340692393274762 0.9856473117918008 0.11340692393274762 0.014352688208199299 -0.11340692393274762
383.1433955416162 0.013201573205503294 -0.10860969615481755 0.9867984267944969 0.10860969615481755 0.9867984267944969 0.10860969615481755 0.013201573205503294 -0.10860969615481755
400.68835589147574 0.01214336423914189 -0.10400482579351766 0.9878566357608581 0.10400482579351766 0.9878566357608581 0.10400482579351766 0.01214336423914189 -0.10400482579351766
419.03673772076064 0.011170721181225246 -0.09958581274392687 0.9888292788187745 0.09958581274392687 0.9888292788187745 0.09958581274392687 0.011170721181225246 -0.09958581274392687
438.225331427439 0.01027686638106525 -0.09534623526498105 0.9897231336189348 0.09534623526498105 0.9897231336189348 0.09534623526498105 0.01027686638106525 -0.09534623526498105
458.2926121209498 0.009455543142353797 -0.09127977016090343 0.9905444568576465 0.09127977016090343 0.9905444568576465 0.09127977016090343 0.009455543142353797 -0.09127977016090343
479.2788167687661 0.008700976789876084 -0.08738020904131441 0.9912990232101239 0.08738020904131441 0.9912990232101239 0.08738020904131441 0.008700976789876084 -0.08738020904131441
501.22602487566456 0.008007838324449783 -0.08364147122201372 0.9919921616755502 0.08364147122201372 0.9919921616755502 0.08364147122201372 0.008007838324449783 -0.08364147122201372
524.1782428574726 0.007371210615787272 -0.08005761376823352 0.9926287893842128 0.08005761376823352 0.9926287893842128 0.08005761376823352 0.007371210615787272 -0.08005761376823352
548.1814922784702 0.006786557045783044 -0.07662283912287217 0.9932134429542169 0.07662283912287217 0.9932134429542169 0.07662283912287217 0.006786557045783044 -0.07662283912287217
573.2839021293739 0.006249692488156179 -0.07333150070535115 0.9937503075118437 0.07333150070535115 0.9937503075118437 0.07333150070535115 0.006249692488156179 -0.07333150070535115
599.5358053309263 0.005756756493061893 -0.07017810681349894 0.9942432435069378 0.07017810681349894 0.9942432435069378 0.07017810681349894 0.005756756493061893 -0.07017810681349894
626.9898396565933 0.005304188535754389 -0.06715732311214784 0.9946958114642457 0.06715732311214784 0.9946958114642457 0.06715732311214784 0.005304188535754389 -0.06715732311214784
655.7010532767296 0.004888705185138163 -0.06426397394848628 0.9951112948148617 0.06426397394848628 0.9951112948148617 0.06426397394848628 0.004888705185138163 -0.06426397394848628
685.7270151358366 0.004507279049643933 -0.06149304269588362 0.9954927209503562 0.06149304269588362 0.9954927209503562 0.06149304269588362 0.004507279049643933 -0.06149304269588362
717.1279303842347 0.0041571193629818875 -0.05883967129487182 0.9958428806370182 0.05883967129487182 0.9958428806370182 0.05883967129487182 0.0041571193629818875 -0.05883967129487182
749.9667610955984 0.0038356540797928706 -0.056299159131991926 0.9961643459202072 0.056299159131991926 0.9961643459202072 0.056299159131991926 0.0038356540797928706 -0.056299159131991926
784.3093525124082 0.0035405133600551726 -0.053866961373885386 0.996459486639945 0.053866961373885386 0.996459486639945 0.053866961373885386 0.0035405133600551726 -0.053866961373885386
820.2245650724522 0.0032695143305214104 -0.05153868685483635 0.9967304856694786 0.05153868685483635 0.9967304856694786 0.05153868685483635 0.0032695143305214104 -0.05153868685483635
857.7844124811068 0.0030206470208519617 -0.049310095600388876 0.9969793529791482 0.049310095600388876 0.9969793529791482 0.049310095600388876 0.0030206470208519617 -0.049310095600388876
897.0642061062428 0.002792061381043686 -0.0471770960571042 0.9972079386189563 0.0471770960571042 0.9972079386189563 0.0471770960571042 0.002792061381043686 -0.0471770960571042
938.1427059852851 0.0025820552949379245 -0.04513574208843239 0.9974179447050622 0.04513574208843239 0.9974179447050622 0.04513574208843239 0.0025820552949379245 -0.04513574208843239
981.102278747212 0.0023890635118670152 -0.04318222978853456 0.9976109364881331 0.04318222978853456 0.9976109364881331 0.04318222978853456 0.0023890635118670152 -0.04318222978853456
1026.0290627661395 0.0022116474248011766 -0.041312894159238715 0.9977883525751987 0.041312894159238715 0.9977883525751987 0.041312894159238715 0.0022116474248011766 -0.041312894159238715
1073.0131408776467 0.0020484856287050443 -0.03952420568973812 0.997951514371295 0.03952420568973812 0.997951514371295 0.03952420568973812 0.0020484856287050443 -0.03952420568973812
1122.1487210041523 0.0018983651972841558 -0.03781276687379904 0.9981016348027159 0.03781276687379904 0.9981016348027159 0.03781276687379904 0.0018983651972841558 -0.03781276687379904
1173.5343250515148 0.0017601736200214915 -0.03617530869485232 0.9982398263799785 0.03617530869485232 0.9982398263799785 0.03617530869485232 0.0017601736200214915 -0.03617530869485232
1227.2729864556143 0.0016328913445313165 -0.0346086871051769 0.998367108655469 0.0346086871051769 0.998367108655469 0.0346086871051769 0.0016328913445313165 -0.0346086871051769
1283.4724567750195 0.0015155848719729278 -0.03310987952128772 0.998484415128027 0.03310987952128772 0.998484415128027 0.03310987952128772 0.0015155848719729278 -0.03310987952128772
1342.245421743976 0.0014074003557624267 -0.03167598135351428 0.9985925996442376 0.03167598135351428 0.9985925996442376 0.03167598135351428 0.0014074003557624267 -0.03167598135351428
1403.7097272189235 0.0013075576562881777 -0.03030420258356569 0.9986924423437119 0.03030420258356569 0.9986924423437119 0.03030420258356569 0.0013075576562881777 -0.03030420258356569
1467.9886154715937 0.0012153448069549433 -0.028991864399646232 0.998784655193045 0.028991864399646232 0.998784655193045 0.028991864399646232 0.0012153448069549433 -0.028991864399646232
1535.2109723024755 0.0011301128498065818 -0.027736395894489087 0.9988698871501935 0.027736395894489087 0.9988698871501935 0.027736395894489087 0.0011301128498065818 -0.027736395894489087
1605.5115854701387 0.0010512710023225344 -0.02653533082764319 0.9989487289976775 0.02653533082764319 0.9989487289976775 0.02653533082764319 0.0010512710023225344 -0.02653533082764319
1679.0314149545911 9.782821208115257E-4 -0.02538630444964124 0.9990217178791885 0.02538630444964124 0.9990217178791885 0.02538630444964124 9.782821208115257E-4 -0.02538630444964124
1755.9178755965756 9.106584301370597E-4 -0.024287050382478127 0.9990893415698628 0.024287050382478127 0.9990893415698628 0.024287050382478127 9.106584301370597E-4 -0.024287050382478127
1836.3251326795319 8.479574942352608E-4 -0.023235397548323423 0.9991520425057647 0.023235397548323423 0.9991520425057647 0.023235397548323423 8.479574942352608E-4 -0.023235397548323423
1920.4144110468878 7.897784068905631E-4 -0.022229267136740238 0.9992102215931095 0.022229267136740238 0.9992102215931095 0.022229267136740238 7.897784068905631E-4 -0.022229267136740238
2008.3543183745 7.357581873235734E-4 -0.021266669600001994 0.9992642418126763 0.021266669600001994 0.9992642418126763 0.021266669600001994 7.357581873235734E-4 -0.021266669600001994
2100.321183246434 6.855683700799773E-4 -0.020345701666443207 0.9993144316299203 0.020345701666443207 0.9993144316299203 0.020345701666443207 6.855683700799773E-4 -0.020345701666443207
2196.4994087119585 6.38911783231224E-4 -0.01946454336312269 0.9993610882167688 0.01946454336312269 0.9993610882167688 0.01946454336312269 6.38911783231224E-4 -0.01946454336312269
2297.0818420326846 5.955195127563927E-4 -0.018621455041310808 0.9994044804872438 0.018621455041310808 0.9994044804872438 0.018621455041310808 5.955195127563927E-4 -0.018621455041310808
2402.270161361206 5.551480539556854E-4 -0.017814774401248887 0.9994448519460442 0.017814774401248887 0.9994448519460442 0.017814774401248887 5.551480539556854E-4 -0.017814774401248887
2512.2752801266033 5.17576652697088E-4 -0.017042913516018228 0.9994824233473028 0.017042913516018228 0.9994824233473028 0.017042913516018228 5.17576652697088E-4 -0.017042913516018228
2627.3177699376165 4.826048401477747E-4 -0.01630435585790996 0.999517395159852 0.01630435585790996 0.999517395159852 0.01630435585790996 4.826048401477747E-4 -0.01630435585790996
2747.6283028514745 4.500501644098367E-4 -0.015597653334105083 0.99954994983559 0.015597653334105083 0.99954994983559 0.015597653334105083 4.500501644098367E-4 -0.015597653334105083
2873.4481138951564 4.197461212735023E-4 -0.014921423341478309 0.9995802538787265 0.014921423341478309 0.9995802538787265 0.014921423341478309 4.197461212735023E-4 -0.014921423341478309
3005.0294847665045 3.9154028430348127E-4 -0.014274345852700852 0.9996084597156965 0.014274345852700852 0.9996084597156965 0.014274345852700852 3.9154028430348127E-4 -0.014274345852700852
3142.6362496850466 3.652926319229247E-4 -0.0136551605473747 0.9996347073680772 0.0136551605473747 0.9996347073680772 0.0136551605473747 3.652926319229247E-4 -0.0136551605473747
3286.544324406816 3.4087406631980844E-4 -0.01306266400260642 0.9996591259336801 0.01306266400260642 0.9996591259336801 0.01306266400260642 3.4087406631980844E-4 -0.01306266400260642
3437.0422594639017 3.181651161367613E-4 -0.012495706957225353 0.9996818348838631 0.012495706957225353 0.9996818348838631 0.012495706957225353 3.181651161367613E-4 -0.012495706957225353
3594.431818738024 2.9705481225582845E-4 -0.011953191662847728 0.9997029451877442 0.011953191662847728 0.9997029451877442 0.011953191662847728 2.9705481225582845E-4 -0.011953191662847728
3759.0285845282415 2.7743972374678227E-4 -0.011434069333319797 0.999722560276253 0.011434069333319797 0.999722560276253 0.011434069333319797 2.7743972374678227E-4 -0.011434069333319797
3931.162590326006 2.5922313934567285E-4 -0.010937337701916225 0.9997407768606542 0.010937337701916225 0.9997407768606542 0.010937337701916225 2.5922313934567285E-4 -0.010937337701916225
4111.17898256636 2.423143787411309E-4 -0.010462038693212914 0.9997576856212588 0.010462038693212914 0.9997576856212588 0.010462038693212914 2.423143787411309E-4 -0.010462038693212914
4299.438712682125 2.2662821748210924E-4 -0.010007256213986376 0.9997733717825178 0.010007256213986376 0.9997733717825178 0.010007256213986376 2.2662821748210924E-4 -0.010007256213986376
4496.31926084876 2.1208440944423616E-4 -0.009572114064980219 0.9997879155905558 0.009572114064980219 0.9997879155905558 0.009572114064980219 2.1208440944423616E-4 -0.009572114064980219
4702.215392871039 1.9860729142661592E-4 -0.009155773973061351 0.9998013927085732 0.009155773973061351 0.9998013927085732 0.009155773973061351 1.9860729142661592E-4 -0.009155773973061351
4917.539951729213 1.8612545549609967E-4 -0.008757433741263273 0.999813874544504 0.008757433741263273 0.999813874544504 0.008757433741263273 1.8612545549609967E-4 -0.008757433741263273
5142.724685371758 1.7457147604000255E-4 -0.008376325512543517 0.9998254285239601 0.008376325512543517 0.9998254285239601 0.008376325512543517 1.7457147604000255E-4 -0.008376325512543517
5378.221112414543 1.6388168001948275E-4 -0.008011714141793108 0.9998361183199808 0.008011714141793108 0.9998361183199808 0.008011714141793108 1.6388168001948275E-4 -0.008011714141793108
5624.501427482224 1.539959505319793E-4 -0.007662895669724883 0.9998460040494679 0.007662895669724883 0.9998460040494679 0.007662895669724883 1.539959505319793E-4 -0.007662895669724883
5882.059448007167 1.4485755540492536E-4 -0.007329195891708829 0.9998551424445952 0.007329195891708829 0.9998551424445952 0.007329195891708829 1.4485755540492536E-4 -0.007329195891708829
6151.41160438433 1.364129940851919E-4 -0.007009969014373744 0.9998635870059148 0.007009969014373744 0.9998635870059148 0.007009969014373744 1.364129940851919E-4 -0.007009969014373744
6433.097975467465 1.2861185750911097E-4 -0.0067045963928058444 0.999871388142491 0.0067045963928058444 0.999871388142491 0.0067045963928058444 1.2861185750911097E-4 -0.0067045963928058444
6727.683371482931 1.2140669690399465E-4 -0.006412485341391578 0.999878593303096 0.006412485341391578 0.999878593303096 0.006412485341391578 1.2140669690399465E-4 -0.006412485341391578
7035.758466532445 1.1475289856701413E-4 -0.006133068011722351 0.999885247101433 0.006133068011722351 0.999885247101433 0.006133068011722351 1.1475289856701413E-4 -0.006133068011722351
7357.940982955574 1.0860856258702589E-4 -0.00586580033145391 0.9998913914374131 0.00586580033145391 0.9998913914374131 0.00586580033145391 1.0860856258702589E-4 -0.00586580033145391
7694.876929926739 1.0293438422506556E-4 -0.005610160998552406 0.999897065615775 0.005610160998552406 0.999897065615775 0.005610160998552406 1.0293438422506556E-4 -0.005610160998552406
8047.241898770236 9.769353726208138E-5 -0.005365650525927079 0.9999023064627383 0.005365650525927079 0.9999023064627383 0.005365650525927079 9.769353726208138E-5 -0.005365650525927079
8415.742417590522 9.285155907452521E-5 -0.005131790332020082 0.9999071484409251 0.005131790332020082 0.9999071484409251 0.005131790332020082 9.285155907452521E-5 -0.005131790332020082
8801.117367933934 8.837623752808873E-5 -0.004908121873476753 0.9999116237624719 0.004908121873476753 0.9999116237624719 0.004908121873476753 8.837623752808873E-5 -0.004908121873476753
9204.139466322391 8.423750000589048E-5 -0.004694205816540708 0.9999157624999943 0.004694205816540708 0.9999157624999943 0.004694205816540708 8.423750000589048E-5 -0.004694205816540708
9625.61681362972 8.040730502763525E-5 -0.0044896212442991175 0.9999195926949721 0.0044896212442991175 0.9999195926949721 0.0044896212442991175 8.040730502763525E-5 -0.0044896212442991175
10066.394515407255 7.685953698683274E-5 -0.0042939648973392575 0.9999231404630132 0.0042939648973392575 0.9999231404630132 0.0042939648973392575 7.685953698683274E-5 -0.0042939648973392575
10527.356376407623 7.356990454813582E-5 -0.00410685044576626 0.9999264300954519 0.00410685044576626 0.9999264300954519 0.00410685044576626 7.356990454813582E-5 -0.00410685044576626
11009.426672704432 7.051584321805575E-5 -0.0039279077908743335 0.9999294841567818 0.0039279077908743335 0.9999294841567818 0.0039279077908743335 7.051584321805575E-5 -0.0039279077908743335
11513.572004961125 6.767642253937062E-5 -0.0037567823950607477 0.9999323235774606 0.0037567823950607477 0.9999323235774606 0.0037567823950607477 6.767642253937062E-5 -0.0037567823950607477
12040.803236564994 6.503225827017751E-5 -0.0035931346388256417 0.9999349677417296 0.0035931346388256417 0.9999349677417296 0.0035931346388256417 6.503225827017751E-5 -0.0035931346388256417
